# Name: NMEA2000 Bus
# Chipset: Garmin AIS600, Garmin GPS17x NMEA2000, Garmin GPSMAP 720
# Firmware: various
# Date: 2013-09-14
# Submitter: = Reinhard Arlt <reinhard.arlt@t-online.de>
# Location: Greece, Saronicos, 37d55mN 23d01mE
(1410714882.622188) can0 09F80102#36729A16021AB80D
(1410714882.697169) can0 09F80202#D0FC00000300FFFF
(1410714882.722163) can0 09F80102#36729A16021AB80D
(1410714882.822139) can0 09F80102#36729A16021AB80D
(1410714882.922053) can0 09F80102#36729A16021AB80D
(1410714882.947169) can0 09F80202#D1FC00000300FFFF
(1410714883.022029) can0 09F80102#36729A16021AB80D
(1410714883.084071) can0 0DF01002#D2F0C73F00E73A24
(1410714883.087123) can0 19FA0302#D2D3490069006400
(1410714883.089961) can0 19FA0402#4093D2FD0C0B7F34
(1410714883.092982) can0 19FA0402#4113C7D812FDFFFF
(1410714883.095973) can0 19FA0402#42FFF220673007D4
(1410714883.099177) can0 19FA0402#43C512F0FFFFFFF2
(1410714883.101954) can0 19FA0402#440E7F16B920A211
(1410714883.104975) can0 19FA0402#4506000000F2168B
(1410714883.107966) can0 19FA0402#4609FF2CA2111200
(1410714883.111109) can0 19FA0402#470000F20122247C
(1410714883.113978) can0 19FA0402#48D9AD13DBFFFFFF
(1410714883.116969) can0 19FA0402#49F21BE80A9574FC
(1410714883.119990) can0 19FA0402#4A1038000000F217
(1410714883.123164) can0 19FA0402#4BD106208DBB1086
(1410714883.125971) can0 19FA0402#4CFFFFFFF2047314
(1410714883.128962) can0 19FA0402#4DAAD26211EBFFFF
(1410714883.131953) can0 19FA0402#4EFFF21F390A674E
(1410714883.135096) can0 19FA0402#4F761185000000F2
(1410714883.137965) can0 19FA0402#501C1704C2C7B60D
(1410714883.140956) can0 19FA0402#5109000000F21350
(1410714883.143946) can0 19FA0402#521D2C80D6114100
(1410714883.147120) can0 19FA0402#530000F214731465
(1410714883.149958) can0 19FA0402#54B71C112E000000
(1410714883.152979) can0 19FA0402#55F2FFFFFFFFFFFF
(1410714883.155940) can0 0DF80502#402FD2C73F00E73A
(1410714883.159175) can0 0DF80502#4124C0A424231143
(1410714883.161952) can0 0DF80502#424305809E757091
(1410714883.164942) can0 0DF80502#43B9310385C88F02
(1410714883.167964) can0 0DF80502#440000000013FC0C
(1410714883.171137) can0 0DF80502#4549008000AC0D00
(1410714883.173976) can0 0DF80502#460000FFFFFFFFFF
(1410714883.176936) can0 09F80102#36729A16021AB80D
(1410714883.208003) can0 09F80202#D3FC00000600FFFF
(1410714883.232966) can0 09F80102#36729A16021AB80D
(1410714883.332942) can0 09F80102#36729A16021AB80D
(1410714883.432917) can0 09F80102#36729A16021AB80D
(1410714883.442500) can0 19F212B0#2009F3000064FF9C
(1410714883.443049) can0 19F212B0#211C0A00FFFFFFFF
(1410714883.443598) can0 19F214B0#00EC04C5FF6978F3
(1410714883.457911) can0 09F80202#D4FC00000600FFFF
(1410714883.532862) can0 09F80102#36729A16021AB80D
(1410714883.632899) can0 09F80102#36729A16021AB80D
(1410714883.707850) can0 09F80202#D5FC00000600FFFF
(1410714883.732844) can0 09F80102#36729A16021AB80D
(1410714883.744379) can0 11F80E01#001B0188F64A0E70
(1410714883.744929) can0 11F80E01#01FCB80D60019A16
(1410714883.745509) can0 11F80E01#0210FFFF000024C0
(1410714883.746088) can0 11F80E01#0308154F000000FE
(1410714883.832819) can0 09F80102#36729A16021AB80D
(1410714883.932764) can0 09F80102#36729A16021AB80D
(1410714883.957850) can0 09F80202#D6FC00000600FFFF
(1410714884.032710) can0 09F80102#36729A16021AB80D
(1410714884.093195) can0 0DF01002#D7F0C73F100E3B24
(1410714884.095667) can0 19FA0302#D7D3490069006400
(1410714884.098658) can0 19FA0402#6093D7FD0C0B7F34
(1410714884.101801) can0 19FA0402#6113C73012FDFFFF
(1410714884.104670) can0 19FA0402#62FFF220673007D4
(1410714884.107661) can0 19FA0402#63EF12EDFFFFFFF2
(1410714884.110651) can0 19FA0402#640E7F16B920F511
(1410714884.113856) can0 19FA0402#65FFFFFFFFF2168B
(1410714884.116633) can0 19FA0402#6609FF2C8B110E00
(1410714884.119654) can0 19FA0402#670000F20122247C
(1410714884.122645) can0 19FA0402#68D9DF12E3FFFFFF
(1410714884.125788) can0 19FA0402#69F21BE80A95742F
(1410714884.128657) can0 19FA0402#6A103B000000F217
(1410714884.131648) can0 19FA0402#6BD106208DF51086
(1410714884.134638) can0 19FA0402#6CFFFFFFF2047314
(1410714884.137812) can0 19FA0402#6DAAD2D610FAFFFF
(1410714884.140650) can0 19FA0402#6EFFF21F390A674E
(1410714884.143641) can0 19FA0402#6F29117D000000F2
(1410714884.145289) can0 11F80F01#801A125C23220EF0
(1410714884.145838) can0 11F80F01#811CB80D60739A16
(1410714884.146418) can0 11F80F01#8210793F00000600
(1410714884.146998) can0 11F80F01#8318FFFF0074FFFF
(1410714884.147547) can0 19FA0402#701C1704C2C78A0D
(1410714884.149928) can0 19FA0402#7113000000F213A2
(1410714884.152644) can0 19FA0402#721C2C801D123F00
(1410714884.155634) can0 19FA0402#730000F214731465
(1410714884.158656) can0 19FA0402#74B733122E000000
(1410714884.161829) can0 19FA0402#75F2FFFFFFFFFFFF
(1410714884.164637) can0 0DF80502#602FD7C73F100E3B
(1410714884.167628) can0 0DF80502#6124C0A424231143
(1410714884.170618) can0 0DF80502#624305809E757091
(1410714884.173853) can0 0DF80502#63B9310385C88F02
(1410714884.176722) can0 0DF80502#640000000013FC0C
(1410714884.179652) can0 0DF80502#6549008000AC0D00
(1410714884.182673) can0 0DF80502#660000FFFFFFFFFF
(1410714884.185786) can0 09F80102#36729A16021AB80D
(1410714884.217860) can0 09F80202#D8FC00000300FFFF
(1410714884.228724) can0 1DEFFF01#A00AE598B6060404
(1410714884.229304) can0 1DEFFF01#A100000002FFFFFF
(1410714884.242640) can0 09F80102#36729A16021AB80D
(1410714884.342616) can0 09F80102#36729A16021AB80D
(1410714884.442591) can0 09F80102#36729A16021AB80D
(1410714884.467616) can0 09F80202#D9FC00000300FFFF
(1410714884.542567) can0 09F80102#36729A16021AB80D
(1410714884.642542) can0 09F80102#36729A16021AB80D
(1410714884.687678) can0 18EEFF11#40E2C1DD00C8A0C0
(1410714884.717860) can0 09F80202#DAFC00000300FFFF
(1410714884.742487) can0 09F80102#36729A16021AB80D
(1410714884.824793) can0 11F80E01#201B014875520EF0
(1410714884.825343) can0 11F80E01#2102A00DC0A3A616
(1410714884.825892) can0 11F80E01#220C2ACBE301DB80
(1410714884.826472) can0 11F80E01#230065C6000000FE
(1410714884.842463) can0 09F80102#36729A16021AB80D
(1410714884.942255) can0 19F212B0#400907000064FF9C
(1410714884.942774) can0 09F80102#36729A16021AB80D
(1410714884.943354) can0 19F212B0#411C0A00FFFFFFFF
(1410714884.943934) can0 19F214B0#00ED04C5FF677807
(1410714884.967432) can0 09F80202#DBFC00000300FFFF
(1410714885.042384) can0 09F80102#36729A16021AB80D
(1410714885.101405) can0 0DF01002#DCF0C73F20353B24
(1410714885.104700) can0 19FA0302#DCD3490069006400
(1410714885.107355) can0 19FA0402#8093DCFD0C0B7F34
(1410714885.110346) can0 19FA0402#8113C73812FCFFFF
(1410714885.113337) can0 19FA0402#82FFF220673007D4
(1410714885.116602) can0 19FA0402#838B13E8FFFFFFF2
(1410714885.119318) can0 19FA0402#840E7F16B920EB11
(1410714885.122340) can0 19FA0402#85FDFFFFFFF2168B
(1410714885.125330) can0 19FA0402#8609FF2C9B110E00
(1410714885.128535) can0 19FA0402#870000F20122247C
(1410714885.131342) can0 19FA0402#88D9C112EBFFFFFF
(1410714885.134303) can0 19FA0402#89F21BE80A957458
(1410714885.137324) can0 19FA0402#8A1041000000F217
(1410714885.140498) can0 19FA0402#8BD106208DD0107E
(1410714885.143336) can0 19FA0402#8CFFFFFFF2047314
(1410714885.146326) can0 19FA0402#8DAAD20611080000
(1410714885.149317) can0 19FA0402#8E00F21F390A674E
(1410714885.152613) can0 19FA0402#8F3F117F000000F2
(1410714885.155329) can0 19FA0402#901C1704C2C7800D
(1410714885.158320) can0 19FA0402#911B000000F213A2
(1410714885.161311) can0 19FA0402#921C2C8062124200
(1410714885.164637) can0 19FA0402#930000F214731465
(1410714885.167323) can0 19FA0402#94B7A9102B000000
(1410714885.170344) can0 19FA0402#95F2FFFFFFFFFFFF
(1410714885.173334) can0 0DF80502#802FDCC73F20353B
(1410714885.176600) can0 0DF80502#8124C0A424231143
(1410714885.179377) can0 0DF80502#824305809E757091
(1410714885.182612) can0 0DF80502#83B9310385C88F02
(1410714885.185328) can0 0DF80502#840000000013FC0C
(1410714885.188563) can0 0DF80502#8549008000AC0D00
(1410714885.191340) can0 0DF80502#860000FFFFFFFFFF
(1410714885.194300) can0 09F80102#36729A16021AB80D
(1410714885.225367) can0 09F80202#DDFC00000400FFFF
(1410714885.250330) can0 09F80102#36729A16021AB80D
(1410714885.350306) can0 09F80102#36729A16021AB80D
(1410714885.450282) can0 09F80102#36729A16021AB80D
(1410714885.475306) can0 09F80202#DEFC00000400FFFF
(1410714885.550257) can0 09F80102#36729A16021AB80D
(1410714885.650263) can0 09F80102#36729A16021AB80D
(1410714885.725214) can0 09F80202#DFFC00000400FFFF
(1410714885.750208) can0 09F80102#36729A16021AB80D
(1410714885.850184) can0 09F80102#36729A16021AB80D
(1410714885.950282) can0 09F80102#36729A16021AB80D
(1410714885.975184) can0 09F80202#E0FC00000400FFFF
(1410714886.050074) can0 09F80102#36729A16021AB80D
(1410714886.059748) can0 0DF01002#E1F0C73F305C3B24
(1410714886.062037) can0 19FA0302#E1D3490069006400
(1410714886.065028) can0 19FA0402#A093E1FD0C0B7F34
(1410714886.068049) can0 19FA0402#A113C73E12FCFFFF
(1410714886.071192) can0 19FA0402#A2FFF220673007D4
(1410714886.074030) can0 19FA0402#A36E13E9FFFFFFF2
(1410714886.077021) can0 19FA0402#A40E7F16B920E211
(1410714886.080042) can0 19FA0402#A5F5FFFFFFF2168B
(1410714886.083155) can0 19FA0402#A609FF2CB9111200
(1410714886.086024) can0 19FA0402#A70000F20122247C
(1410714886.089045) can0 19FA0402#A8D9B613E1FFFFFF
(1410714886.092036) can0 19FA0402#A9F21BE80A9574AB
(1410714886.095118) can0 19FA0402#AA103B000000F217
(1410714886.098017) can0 19FA0402#ABD106208D5B107E
(1410714886.101038) can0 19FA0402#ACFFFFFFF2047314
(1410714886.104029) can0 19FA0402#ADAAD2E211F5FFFF
(1410714886.107111) can0 19FA0402#AEFFF21F390A674E
(1410714886.110072) can0 19FA0402#AF711178000000F2
(1410714886.113032) can0 19FA0402#B01C1704C2C7D90D
(1410714886.116022) can0 19FA0402#B10F000000F213A2
(1410714886.119166) can0 19FA0402#B21C2C80D0123D00
(1410714886.122004) can0 19FA0402#B30000F214221513
(1410714886.125025) can0 19FA0402#B4B8B61024000000
(1410714886.128046) can0 19FA0402#B5F2FFFFFFFFFFFF
(1410714886.131190) can0 0DF80502#A02FE1C73F305C3B
(1410714886.133997) can0 0DF80502#A124C0A424231143
(1410714886.137019) can0 0DF80502#A24305809E757091
(1410714886.140009) can0 0DF80502#A3B9310385C88F02
(1410714886.143214) can0 0DF80502#A40000000013FC0C
(1410714886.146021) can0 0DF80502#A549008000AC0D00
(1410714886.149043) can0 0DF80502#A60000FFFFFFFFFF
(1410714886.152003) can0 09F80102#36729A16021AB80D
(1410714886.184077) can0 09F80202#E2FC00000100FFFF
(1410714886.209040) can0 09F80102#36729A16021AB80D
(1410714886.308985) can0 09F80102#36729A16021AB80D
(1410714886.408991) can0 09F80102#36729A16021AB80D
(1410714886.433985) can0 09F80202#E3FC00000100FFFF
(1410714886.442286) can0 19F212B0#600916000064FF9B
(1410714886.442835) can0 19F212B0#611C0A00FFFFFFFF
(1410714886.443385) can0 19F214B0#00ED04C5FF677816
(1410714886.508967) can0 09F80102#36729A16021AB80D
(1410714886.608942) can0 09F80102#36729A16021AB80D
(1410714886.686427) can0 09F80202#E4FC00000100FFFF
(1410714886.690852) can0 0DF50B11#0195030000FFFFFF
(1410714886.708918) can0 09F80102#36729A16021AB80D
(1410714886.808863) can0 09F80102#36729A16021AB80D
(1410714886.908839) can0 09F80102#36729A16021AB80D
(1410714886.933894) can0 09F80202#E5FC00000100FFFF
(1410714887.008784) can0 09F80102#36729A16021AB80D
(1410714887.068934) can0 0DF01002#E6F0C73F40833B24
(1410714887.071711) can0 19FA0302#E6D3490069006400
(1410714887.074702) can0 19FA0402#C093E6FD0C0B7F34
(1410714887.077845) can0 19FA0402#C113C77811FCFFFF
(1410714887.080714) can0 19FA0402#C2FFF220673007D4
(1410714887.083704) can0 19FA0402#C37612F4FFFFFFF2
(1410714887.086726) can0 19FA0402#C40E7F16B920EE11
(1410714887.089930) can0 19FA0402#C5EBFFFFFFF2168B
(1410714887.092707) can0 19FA0402#C609FF2CD2110E00
(1410714887.095728) can0 19FA0402#C70000F20122247C
(1410714887.098719) can0 19FA0402#C8D9DF13DDFFFFFF
(1410714887.101832) can0 19FA0402#C9F21BE80A9574AD
(1410714887.104731) can0 19FA0402#CA1036000000F217
(1410714887.107691) can0 19FA0402#CBD106208D8E107C
(1410714887.110712) can0 19FA0402#CCFFFFFFF2047314
(1410714887.113825) can0 19FA0402#CDAAD29F11E4FFFF
(1410714887.116694) can0 19FA0402#CEFFF21F390A674E
(1410714887.119715) can0 19FA0402#CFB01173000000F2
(1410714887.122706) can0 19FA0402#D01C1704C2C7CD0D
(1410714887.125849) can0 19FA0402#D104000000F213A2
(1410714887.128718) can0 19FA0402#D21C2C80FC123B00
(1410714887.131709) can0 19FA0402#D30000F214221513
(1410714887.134699) can0 19FA0402#D4B80D111B000000
(1410714887.137873) can0 19FA0402#D5F2FFFFFFFFFFFF
(1410714887.140711) can0 0DF80502#C02FE6C73F40833B
(1410714887.143702) can0 0DF80502#C124C0A424231143
(1410714887.146693) can0 0DF80502#C24305809E757091
(1410714887.149958) can0 0DF80502#C3B9310385C88F02
(1410714887.152705) can0 0DF80502#C40000000013FC0C
(1410714887.155695) can0 0DF80502#C549008000AC0D00
(1410714887.158717) can0 0DF80502#C60000FFFFFFFFFF
(1410714887.161829) can0 09F80102#36729A16021AB80D
(1410714887.193903) can0 09F80202#E7FC00000600FFFF
(1410714887.218714) can0 09F80102#36729A16021AB80D
(1410714887.318659) can0 09F80102#36729A16021AB80D
(1410714887.418665) can0 09F80102#36729A16021AB80D
(1410714887.443690) can0 09F80202#E8FC00000600FFFF
(1410714887.518641) can0 09F80102#36729A16021AB80D
(1410714887.618616) can0 09F80102#36729A16021AB80D
(1410714887.692500) can0 0DF50B11#0195030000FFFFFF
(1410714887.693903) can0 09F80202#E9FC00000600FFFF
(1410714887.718562) can0 09F80102#36729A16021AB80D
(1410714887.818537) can0 09F80102#36729A16021AB80D
(1410714887.918482) can0 09F80102#36729A16021AB80D
(1410714887.942286) can0 19F212B0#800925000064FF95
(1410714887.942866) can0 19F212B0#811C0A00FFFFFFFF
(1410714887.943415) can0 19F214B0#00EC04C5FF577825
(1410714887.943995) can0 09F80202#EAFC00000600FFFF
(1410714887.944575) can0 11F80E01#401B0348AA2C0E50
(1410714887.945124) can0 11F80E01#41B1F40DE06B8016
(1410714887.945673) can0 11F80E01#421413E5F402611C
(1410714887.946253) can0 11F80E01#4303FFFFFF7F00FE
(1410714888.018458) can0 09F80102#36729A16021AB80D
(1410714888.083338) can0 0DF01002#EBF0C73F50AA3B24
(1410714888.085413) can0 19FA0302#EBD3490069006400
(1410714888.088587) can0 19FA0402#E093EBFD0C0B7F34
(1410714888.091395) can0 19FA0402#E113C77711F7FFFF
(1410714888.094416) can0 19FA0402#E2FFF220673007D4
(1410714888.097407) can0 19FA0402#E39512F3FFFFFFF2
(1410714888.100550) can0 19FA0402#E40E7F16B920EC11
(1410714888.103419) can0 19FA0402#E5F1FFFFFFF2168B
(1410714888.106379) can0 19FA0402#E609FF2C4F110D00
(1410714888.109400) can0 19FA0402#E70000F20122247C
(1410714888.112605) can0 19FA0402#E8D97813E2FFFFFF
(1410714888.115382) can0 19FA0402#E9F21BE80A957475
(1410714888.118403) can0 19FA0402#EA1041000000F217
(1410714888.121394) can0 19FA0402#EBD106208DD21079
(1410714888.124689) can0 19FA0402#ECFFFFFFF2047314
(1410714888.127406) can0 19FA0402#EDAAD2E111DDFFFF
(1410714888.130396) can0 19FA0402#EEFFF21F390A674E
(1410714888.133387) can0 19FA0402#EFBB1168000000F2
(1410714888.136652) can0 19FA0402#F01C1704C2C7720D
(1410714888.139399) can0 19FA0402#F10C000000F213A2
(1410714888.142390) can0 19FA0402#F21C2C808D123C00
(1410714888.145380) can0 19FA0402#F30000F214221513
(1410714888.148585) can0 19FA0402#F4B8D61119000000
(1410714888.151423) can0 19FA0402#F5F2FFFFFFFFFFFF
(1410714888.154383) can0 0DF80502#E02FEBC73F50AA3B
(1410714888.157374) can0 0DF80502#E124C0A424231143
(1410714888.160517) can0 0DF80502#E24305809E757091
(1410714888.163355) can0 0DF80502#E3B9310385C88F02
(1410714888.166376) can0 0DF80502#E40000000013FC0C
(1410714888.169398) can0 0DF80502#E549008000AC0D00
(1410714888.172602) can0 0DF80502#E60000FFFFFFFFFF
(1410714888.175379) can0 09F80102#36729A16021AB80D
(1410714888.207423) can0 09F80202#ECFC00000000FFFF
(1410714888.232661) can0 09F80102#36729A16021AB80D
(1410714888.291071) can0 11F80E01#601B01985B620EF0
(1410714888.291560) can0 11F80E01#61C5C20D40B99916
(1410714888.292139) can0 11F80E01#6228A5A400004A40
(1410714888.292689) can0 11F80E01#6300FFFFFF7F00FE
(1410714888.332636) can0 09F80102#36729A16021AB80D
(1410714888.432642) can0 09F80102#36729A16021AB80D
(1410714888.457362) can0 09F80202#EDFC00000000FFFF
(1410714888.532618) can0 09F80102#36729A16021AB80D
(1410714888.632655) can0 09F80102#36729A16021AB80D
(1410714888.694025) can0 0DF50B11#0195030000FFFFFF
(1410714888.707301) can0 09F80202#EEFC00000000FFFF
(1410714888.732630) can0 09F80102#36729A16021AB80D
(1410714888.832667) can0 09F80102#36729A16021AB80D
(1410714888.932551) can0 09F80102#36729A16021AB80D
(1410714888.957209) can0 09F80202#EFFC00000000FFFF
(1410714889.032160) can0 09F80102#36729A16021AB80D
(1410714889.096735) can0 0DF01002#F0F0C73F60D13B24
(1410714889.099238) can0 19FA0302#F0D3490069006400
(1410714889.102106) can0 19FA0402#0093F0FD0C0B7F34
(1410714889.105097) can0 19FA0402#0113C75111F8FFFF
(1410714889.108118) can0 19FA0402#02FFF220673007D4
(1410714889.111262) can0 19FA0402#03F112F0FFFFFFF2
(1410714889.114100) can0 19FA0402#040E7F16B9209011
(1410714889.117091) can0 19FA0402#05FEFFFFFFF2168B
(1410714889.120081) can0 19FA0402#0609FF2C6F110A00
(1410714889.123255) can0 19FA0402#070000F20122247C
(1410714889.126093) can0 19FA0402#08D9A313E5FFFFFF
(1410714889.129084) can0 19FA0402#09F21BE80A957487
(1410714889.132105) can0 19FA0402#0A103D000000F217
(1410714889.135188) can0 19FA0402#0BD106208DC81082
(1410714889.138087) can0 19FA0402#0CFFFFFFF2047314
(1410714889.141077) can0 19FA0402#0DAAD2CF11E5FFFF
(1410714889.144099) can0 19FA0402#0EFFF21F390A674E
(1410714889.147211) can0 19FA0402#0FC61166000000F2
(1410714889.150111) can0 19FA0402#101C1704C2C78F0D
(1410714889.153101) can0 19FA0402#11FBFFFFFFF213A2
(1410714889.156092) can0 19FA0402#121C2C8080123E00
(1410714889.159235) can0 19FA0402#130000F214221513
(1410714889.162104) can0 19FA0402#14B8671118000000
(1410714889.165095) can0 19FA0402#15F2FFFFFFFFFFFF
(1410714889.168085) can0 0DF80502#002FF0C73F60D13B
(1410714889.171229) can0 0DF80502#0124C0A424231143
(1410714889.174067) can0 0DF80502#024305809E757091
(1410714889.177058) can0 0DF80502#03B9310385C88F02
(1410714889.180109) can0 0DF80502#040000000013FC0C
(1410714889.183253) can0 0DF80502#0549008000AC0D00
(1410714889.186152) can0 0DF80502#060000FFFFFFFFFF
(1410714889.189051) can0 09F80102#36729A16021AB80D
(1410714889.221125) can0 09F80202#F1FC00000500FFFF
(1410714889.228419) can0 1DEFFF01#C00AE598B6060404
(1410714889.228968) can0 1DEFFF01#C100000002FFFFFF
(1410714889.246088) can0 09F80102#36729A16021AB80D
(1410714889.346064) can0 09F80102#36729A16021AB80D
(1410714889.442347) can0 19F212B0#A00934000064FF77
(1410714889.442896) can0 19F212B0#A11C0A00FFFFFFFF
(1410714889.443446) can0 19F214B0#00ED04C5FF677834
(1410714889.446040) can0 09F80102#36729A16021AB80D
(1410714889.471308) can0 09F80202#F2FC00000500FFFF
(1410714889.545985) can0 09F80102#36729A16021AB80D
(1410714889.645960) can0 09F80102#36729A16021AB80D
(1410714889.696284) can0 0DF50B11#0195030000FFFFFF
(1410714889.720972) can0 09F80202#F3FC00000500FFFF
(1410714889.745936) can0 09F80102#36729A16021AB80D
(1410714889.845942) can0 09F80102#36729A16021AB80D
(1410714889.945918) can0 09F80102#36729A16021AB80D
(1410714889.971247) can0 09F80202#F4FC00000500FFFF
(1410714890.045924) can0 09F80102#36729A16021AB80D
(1410714890.107417) can0 0DF01002#F5F0C73F70F83B24
(1410714890.110102) can0 19FA0302#F5D3490069006400
(1410714890.112788) can0 19FA0402#2093F5FD0C0B7F34
(1410714890.115778) can0 19FA0402#2113C7A411F9FFFF
(1410714890.118769) can0 19FA0402#22FFF220673007D4
(1410714890.121882) can0 19FA0402#233912F7FFFFFFF2
(1410714890.124751) can0 19FA0402#240E7F16B9209611
(1410714890.127772) can0 19FA0402#25F6FFFFFFF2168B
(1410714890.130762) can0 19FA0402#2609AD2D7B110800
(1410714890.133875) can0 19FA0402#270000F20122247C
(1410714890.136774) can0 19FA0402#28D9B213E4FFFFFF
(1410714890.139735) can0 19FA0402#29F21BE80A957492
(1410714890.142786) can0 19FA0402#2A1036000000F217
(1410714890.145869) can0 19FA0402#2BD106208DAD1085
(1410714890.148768) can0 19FA0402#2CFFFFFFF2047314
(1410714890.151759) can0 19FA0402#2DAAD2CB11F1FFFF
(1410714890.154749) can0 19FA0402#2EFFF21F390A674E
(1410714890.157893) can0 19FA0402#2FBE1167000000F2
(1410714890.160761) can0 19FA0402#301C1704C2C7940D
(1410714890.163752) can0 19FA0402#31FEFFFFFFF213A2
(1410714890.166743) can0 19FA0402#321C2C80A0123D00
(1410714890.169978) can0 19FA0402#330000F214221513
(1410714890.172755) can0 19FA0402#34B87B1118000000
(1410714890.175776) can0 19FA0402#35F2FFFFFFFFFFFF
(1410714890.178767) can0 0DF80502#202FF5C73F70F83B
(1410714890.181849) can0 0DF80502#2124C0A424231143
(1410714890.184748) can0 0DF80502#224305809E757091
(1410714890.185297) can0 11F80E01#801B0108975C0E40
(1410714890.185847) can0 11F80E01#819DC50D80F69816
(1410714890.186396) can0 11F80E01#8229AC5A000067C0
(1410714890.186976) can0 11F80E01#830888AE000000FE
(1410714890.187739) can0 0DF80502#23B9310385C88F02
(1410714890.190760) can0 0DF80502#240000000013FC0C
(1410714890.193873) can0 0DF80502#2549008000AC0D00
(1410714890.196772) can0 0DF80502#260000FFFFFFFFFF
(1410714890.199732) can0 09F80102#36729A16021AB80D
(1410714890.231806) can0 09F80202#F6FC00000000FFFF
(1410714890.256831) can0 09F80102#36729A16021AB80D
(1410714890.356715) can0 09F80102#36729A16021AB80D
(1410714890.456721) can0 09F80102#36729A16021AB80D
(1410714890.481959) can0 09F80202#F7FC00000000FFFF
(1410714890.556696) can0 09F80102#36729A16021AB80D
(1410714890.656733) can0 09F80102#36729A16021AB80D
(1410714890.699213) can0 0DF50B11#0195030000FFFFFF
(1410714890.731654) can0 09F80202#F8FC00000000FFFF
(1410714890.756709) can0 09F80102#36729A16021AB80D
(1410714890.856715) can0 09F80102#36729A16021AB80D
(1410714890.942347) can0 19F212B0#C00943000064FF79
(1410714890.942927) can0 19F212B0#C11C0800FFFFFFFF
(1410714890.943476) can0 19F214B0#00EC04C5FF6D7843
(1410714890.956721) can0 09F80102#36729A16021AB80D
(1410714890.981867) can0 09F80202#F9FC00000000FFFF
(1410714891.056849) can0 09F80102#36729A16021AB80D
(1410714891.068049) can0 0DF01002#00F0C73F801F3C24
(1410714891.070460) can0 19FA0302#00D3490069006400
(1410714891.073481) can0 19FA0402#409300FD0C0B7F34
(1410714891.076685) can0 19FA0402#4113C7FA11F5FFFF
(1410714891.079462) can0 19FA0402#42FFF220673007D4
(1410714891.082453) can0 19FA0402#43CF12FAFFFFFFF2
(1410714891.085444) can0 19FA0402#440E7F16B920AD11
(1410714891.088618) can0 19FA0402#45F2FFFFFFF2168B
(1410714891.091456) can0 19FA0402#4609AD2D4E110F00
(1410714891.094447) can0 19FA0402#470000F20122247C
(1410714891.097468) can0 19FA0402#48D9C713E6FFFFFF
(1410714891.100550) can0 19FA0402#49F21BE80A957485
(1410714891.103449) can0 19FA0402#4A1038000000F217
(1410714891.106440) can0 19FA0402#4BD106208DC51086
(1410714891.109461) can0 19FA0402#4CFFFFFFF2047314
(1410714891.112635) can0 19FA0402#4DAAD24E11040000
(1410714891.115443) can0 19FA0402#4E00F21F390A674E
(1410714891.118464) can0 19FA0402#4FAC116D000000F2
(1410714891.121455) can0 19FA0402#501C1704C2C79E0D
(1410714891.124720) can0 19FA0402#51F3FFFFFFF213A2
(1410714891.127436) can0 19FA0402#521C2C80A7124100
(1410714891.130427) can0 19FA0402#530000F214221513
(1410714891.133448) can0 19FA0402#54B8801117000000
(1410714891.136713) can0 19FA0402#55F2FFFFFFFFFFFF
(1410714891.139460) can0 0DF80502#402F00C73F801F3C
(1410714891.142420) can0 0DF80502#4124C0A424231143
(1410714891.145441) can0 0DF80502#424305809E757091
(1410714891.148615) can0 0DF80502#43B9310385C88F02
(1410714891.151453) can0 0DF80502#440000000013FC0C
(1410714891.154444) can0 0DF80502#4549008000AC0D00
(1410714891.157465) can0 0DF80502#460000FFFFFFFFFF
(1410714891.160578) can0 09F80102#36729A16021AB80D
(1410714891.192683) can0 09F80202#01FC00000300FFFF
(1410714891.217463) can0 09F80102#36729A16021AB80D
(1410714891.317408) can0 09F80102#36729A16021AB80D
(1410714891.417384) can0 09F80102#36729A16021AB80D
(1410714891.442408) can0 09F80202#02FC00000300FFFF
(1410714891.517359) can0 09F80102#36729A16021AB80D
(1410714891.617335) can0 09F80102#36729A16021AB80D
(1410714891.692683) can0 09F80202#03FC00000300FFFF
(1410714891.700709) can0 0DF50B11#0195030000FFFFFF
(1410714891.717310) can0 09F80102#36729A16021AB80D
(1410714891.817286) can0 09F80102#36729A16021AB80D
(1410714891.917231) can0 09F80102#36729A16021AB80D
(1410714891.942286) can0 09F80202#04FC00000300FFFF
(1410714892.017207) can0 09F80102#36729A16021AB80D
(1410714892.077357) can0 0DF01002#05F0C73F90463C24
(1410714892.080164) can0 19FA0302#05D3490069006400
(1410714892.083308) can0 19FA0402#609305FD0C0B7F34
(1410714892.086146) can0 19FA0402#6113C71512F2FFFF
(1410714892.089136) can0 19FA0402#62FFF220673007D4
(1410714892.092127) can0 19FA0402#63B412F5FFFFFFF2
(1410714892.095209) can0 19FA0402#640E7F16B920C711
(1410714892.098139) can0 19FA0402#65F2FFFFFFF2168B
(1410714892.101130) can0 19FA0402#6609AD2D65110400
(1410714892.104151) can0 19FA0402#670000F20122247C
(1410714892.107233) can0 19FA0402#68D96D13EAFFFFFF
(1410714892.110133) can0 19FA0402#69F21BE80A95749E
(1410714892.113154) can0 19FA0402#6A1037000000F217
(1410714892.116145) can0 19FA0402#6BD106CE8DD0107D
(1410714892.119288) can0 19FA0402#6CFFFFFFF2047314
(1410714892.122126) can0 19FA0402#6DAAD2C711F6FFFF
(1410714892.125117) can0 19FA0402#6EFFF21F390A674E
(1410714892.128138) can0 19FA0402#6FA91174000000F2
(1410714892.131281) can0 19FA0402#701C1704C2C7D20D
(1410714892.134119) can0 19FA0402#71F5FFFFFFF213A2
(1410714892.137110) can0 19FA0402#721C2C8051124100
(1410714892.140131) can0 19FA0402#730000F214221513
(1410714892.143336) can0 19FA0402#74B8A6111A000000
(1410714892.146143) can0 19FA0402#75F2FFFFFFFFFFFF
(1410714892.149134) can0 0DF80502#602F05C73F90463C
(1410714892.152094) can0 0DF80502#6124C0A424231143
(1410714892.155207) can0 0DF80502#624305809E757091
(1410714892.158106) can0 0DF80502#63B9310385C88F02
(1410714892.161127) can0 0DF80502#640000000013FC0C
(1410714892.164118) can0 0DF80502#6549008000AC0D00
(1410714892.167231) can0 0DF80502#660000FFFFFFFFFF
(1410714892.170130) can0 09F80102#36729A16021AB80D
(1410714892.202174) can0 09F80202#06FC00000400FFFF
(1410714892.227259) can0 09F80102#36729A16021AB80D
(1410714892.327265) can0 09F80102#36729A16021AB80D
(1410714892.427271) can0 09F80102#36729A16021AB80D
(1410714892.442622) can0 19F212B0#E00952000064FF79
(1410714892.443171) can0 19F212B0#E11C0A00FFFFFFFF
(1410714892.443720) can0 19F214B0#00EC04C5FF6D7852
(1410714892.452082) can0 09F80202#07FC00000400FFFF
(1410714892.527247) can0 09F80102#36729A16021AB80D
(1410714892.627253) can0 09F80102#36729A16021AB80D
(1410714892.637629) can0 11F80E01#A01B01A929C40C80
(1410714892.638178) can0 11F80E01#A133B90D80019A16
(1410714892.638728) can0 11F80E01#A23862020000D460
(1410714892.639307) can0 11F80E01#A30C7CCA000000FE
(1410714892.702021) can0 09F80202#08FC00000400FFFF
(1410714892.704279) can0 0DF50B11#0195030000FFFFFF
(1410714892.727351) can0 09F80102#36729A16021AB80D
(1410714892.827265) can0 09F80102#36729A16021AB80D
(1410714892.927210) can0 09F80102#36729A16021AB80D
(1410714892.951929) can0 09F80202#09FC00000400FFFF
(1410714893.027186) can0 09F80102#36729A16021AB80D
(1410714893.098200) can0 0DF01002#0AF0C73FA06D3C24
(1410714893.100825) can0 19FA0302#0AD3490069006400
(1410714893.103815) can0 19FA0402#80930AFD0C0B7F34
(1410714893.106806) can0 19FA0402#8113C7A312F4FFFF
(1410714893.110041) can0 19FA0402#82FFF220673007D4
(1410714893.112818) can0 19FA0402#839512F9FFFFFFF2
(1410714893.115809) can0 19FA0402#840E7F16B920A411
(1410714893.118830) can0 19FA0402#8501000000F2168B
(1410714893.121882) can0 19FA0402#8609AD2D85110200
(1410714893.124812) can0 19FA0402#870000F20122247C
(1410714893.127833) can0 19FA0402#88D93113EBFFFFFF
(1410714893.130823) can0 19FA0402#89F21BE80A9574A2
(1410714893.133906) can0 19FA0402#8A1034000000F217
(1410714893.136805) can0 19FA0402#8BD106CE8DD31079
(1410714893.139826) can0 19FA0402#8CFFFFFFF2047314
(1410714893.142817) can0 19FA0402#8DAAD26212E7FFFF
(1410714893.145899) can0 19FA0402#8EFFF21F390A674E
(1410714893.148798) can0 19FA0402#8FB51175000000F2
(1410714893.151789) can0 19FA0402#901C1704C2C73B0E
(1410714893.154810) can0 19FA0402#91E7FFFFFFF213A2
(1410714893.157893) can0 19FA0402#921C2C8083124600
(1410714893.160792) can0 19FA0402#930000F214221513
(1410714893.163813) can0 19FA0402#94B878111F000000
(1410714893.166834) can0 19FA0402#95F2FFFFFFFFFFFF
(1410714893.170008) can0 0DF80502#802F0AC73FA06D3C
(1410714893.172785) can0 0DF80502#8124C0A424231143
(1410714893.175806) can0 0DF80502#824305809E757091
(1410714893.178797) can0 0DF80502#83B9310385C88F02
(1410714893.181910) can0 0DF80502#840000000013FC0C
(1410714893.184809) can0 0DF80502#8549008000AC0D00
(1410714893.187830) can0 0DF80502#860000FFFFFFFFFF
(1410714893.190791) can0 09F80102#36729A16021AB80D
(1410714893.222834) can0 09F80202#0BFC00000200FFFF
(1410714893.247797) can0 09F80102#36729A16021AB80D
(1410714893.344416) can0 11F80E01#C01B0188F64A0EB0
(1410714893.344965) can0 11F80E01#C1FBB80D60009A16
(1410714893.345545) can0 11F80E01#C238FFFF00000309
(1410714893.346094) can0 11F80E01#C301154F000000FE
(1410714893.347773) can0 09F80102#36729A16021AB80D
(1410714893.447749) can0 09F80102#36729A16021AB80D
(1410714893.472773) can0 09F80202#0CFC00000200FFFF
(1410714893.547724) can0 09F80102#36729A16021AB80D
(1410714893.647700) can0 09F80102#36729A16021AB80D
(1410714893.705775) can0 0DF50B11#0195030000FFFFFF
(1410714893.722712) can0 09F80202#0DFC00000200FFFF
(1410714893.747675) can0 09F80102#36729A16021AB80D
(1410714893.847651) can0 09F80102#36729A16021AB80D
(1410714893.942347) can0 19F212B0#000961000064FF79
(1410714893.942927) can0 19F212B0#011C0800FFFFFFFF
(1410714893.943476) can0 19F214B0#00EC04C5FF6D7861
(1410714893.947626) can0 09F80102#36729A16021AB80D
(1410714893.972712) can0 09F80202#0EFC00000200FFFF
(1410714894.047602) can0 09F80102#36729A16021AB80D
(1410714894.056788) can0 0DF01002#0FF0C73FB0943C24
(1410714894.059534) can0 19FA0302#0FD3490069006400
(1410714894.062525) can0 19FA0402#A0930FFD0C0B7F34
(1410714894.065516) can0 19FA0402#A113C78311FDFFFF
(1410714894.068659) can0 19FA0402#A2FFF220673007D4
(1410714894.071528) can0 19FA0402#A33D12FEFFFFFFF2
(1410714894.074519) can0 19FA0402#A40E7F16B920DD11
(1410714894.077509) can0 19FA0402#A5F7FFFFFFF2168B
(1410714894.080592) can0 19FA0402#A609AD2D76110000
(1410714894.083521) can0 19FA0402#A70000F20122247C
(1410714894.086512) can0 19FA0402#A8D98913E6FFFFFF
(1410714894.089533) can0 19FA0402#A9F21BE80A9574A0
(1410714894.092646) can0 19FA0402#AA1033000000F217
(1410714894.095484) can0 19FA0402#ABD106CE8DC2107D
(1410714894.098505) can0 19FA0402#ACFFFFFFF2047314
(1410714894.101496) can0 19FA0402#ADAAD23B12DFFFFF
(1410714894.104823) can0 19FA0402#AEFFF21F390A674E
(1410714894.107508) can0 19FA0402#AFA81174000000F2
(1410714894.110499) can0 19FA0402#B01C1704C2C7150E
(1410714894.113520) can0 19FA0402#B1E9FFFFFFF213A2
(1410714894.116694) can0 19FA0402#B21C2C80D4123F00
(1410714894.119501) can0 19FA0402#B30000F214221513
(1410714894.122492) can0 19FA0402#B4B882111D000000
(1410714894.125513) can0 19FA0402#B5F2FFFFFFFFFFFF
(1410714894.128626) can0 0DF80502#A02F0FC73FB0943C
(1410714894.131495) can0 0DF80502#A124C0A424231143
(1410714894.134486) can0 0DF80502#A24305809E757091
(1410714894.137476) can0 0DF80502#A3B9310385C88F02
(1410714894.140620) can0 0DF80502#A40000000013FC0C
(1410714894.143488) can0 0DF80502#A549008000AC0D00
(1410714894.146510) can0 0DF80502#A60000FFFFFFFFFF
(1410714894.149500) can0 09F80102#36729A16021AB80D
(1410714894.180659) can0 09F80202#10FC00000200FFFF
(1410714894.205500) can0 09F80102#36729A16021AB80D
(1410714894.228022) can0 1DEFFF01#E00AE598B6060404
(1410714894.228602) can0 1DEFFF01#E100000002FFFFFF
(1410714894.305476) can0 09F80102#36729A16021AB80D
(1410714894.405451) can0 09F80102#36729A16021AB80D
(1410714894.430476) can0 09F80202#11FC00000200FFFF
(1410714894.505427) can0 09F80102#36729A16021AB80D
(1410714894.605372) can0 09F80102#36729A16021AB80D
(1410714894.680659) can0 09F80202#12FC00000200FFFF
(1410714894.705347) can0 09F80102#36729A16021AB80D
(1410714894.707240) can0 0DF50B11#0198030000FFFFFF
(1410714894.805323) can0 09F80102#36729A16021AB80D
(1410714894.905299) can0 09F80102#36729A16021AB80D
(1410714894.930323) can0 09F80202#13FC00000200FFFF
(1410714894.958094) can0 11F80E01#E01B014875520E30
(1410714894.958643) can0 11F80E01#E1EC9F0D80ADA616
(1410714894.959193) can0 11F80E01#E23C2ACBE3011C40
(1410714894.959742) can0 11F80E01#E30865C6000000FE
(1410714895.005244) can0 09F80102#36729A16021AB80D
(1410714895.065516) can0 0DF01002#14F0C73FC0BB3C24
(1410714895.068201) can0 19FA0302#14D3490069006400
(1410714895.071314) can0 19FA0402#C09314FD0C0B7F34
(1410714895.074213) can0 19FA0402#C113C76A11050000
(1410714895.077204) can0 19FA0402#C200F220673007D4
(1410714895.080195) can0 19FA0402#C32512FDFFFFFFF2
(1410714895.083369) can0 19FA0402#C40E7F16B920C411
(1410714895.086207) can0 19FA0402#C5FAFFFFFFF2168B
(1410714895.089198) can0 19FA0402#C609AD2D23110A00
(1410714895.092188) can0 19FA0402#C70000F20122247C
(1410714895.095271) can0 19FA0402#C8D91F13E7FFFFFF
(1410714895.098170) can0 19FA0402#C9F21BE80A95749B
(1410714895.101191) can0 19FA0402#CA1031000000F217
(1410714895.104182) can0 19FA0402#CBD106CE8DE91085
(1410714895.107264) can0 19FA0402#CCFFFFFFF2047314
(1410714895.110194) can0 19FA0402#CDAAD2FC11E2FFFF
(1410714895.113184) can0 19FA0402#CEFFF21F390A674E
(1410714895.116206) can0 19FA0402#CFAB1174000000F2
(1410714895.119318) can0 19FA0402#D01C1704C2C7DC0D
(1410714895.122187) can0 19FA0402#D1E5FFFFFFF213A2
(1410714895.125178) can0 19FA0402#D21C2C8001124000
(1410714895.128168) can0 19FA0402#D30000F214221513
(1410714895.131342) can0 19FA0402#D4B8C31120000000
(1410714895.134211) can0 19FA0402#D5F2FFFFFFFFFFFF
(1410714895.137171) can0 0DF80502#C02F14C73FC0BB3C
(1410714895.140162) can0 0DF80502#C124C0A424231143
(1410714895.143397) can0 0DF80502#C24305809E757091
(1410714895.146174) can0 0DF80502#C3B9310385C88F02
(1410714895.149195) can0 0DF80502#C40000000013FC0C
(1410714895.152186) can0 0DF80502#C549008000AC0D00
(1410714895.155299) can0 0DF80502#C60000FFFFFFFFFF
(1410714895.158167) can0 09F80102#36729A16021AB80D
(1410714895.190241) can0 09F80202#15FC00000300FFFF
(1410714895.215296) can0 09F80102#36729A16021AB80D
(1410714895.315302) can0 09F80102#36729A16021AB80D
(1410714895.415308) can0 09F80102#36729A16021AB80D
(1410714895.440150) can0 09F80202#16FC00000300FFFF
(1410714895.442377) can0 19F212B0#200970000064FF78
(1410714895.442957) can0 19F212B0#211C0A00FFFFFFFF
(1410714895.443507) can0 19F214B0#00EC04C5FF6D7870
(1410714895.515314) can0 09F80102#36729A16021AB80D
(1410714895.615321) can0 09F80102#36729A16021AB80D
(1410714895.690089) can0 09F80202#17FC00000300FFFF
(1410714895.715327) can0 09F80102#36729A16021AB80D
(1410714895.808802) can0 0DF50B11#0198030000FFFFFF
(1410714895.815302) can0 09F80102#36729A16021AB80D
(1410714895.915278) can0 09F80102#36729A16021AB80D
(1410714895.939997) can0 09F80202#18FC00000300FFFF
(1410714896.015253) can0 09F80102#36729A16021AB80D
(1410714896.074885) can0 0DF01002#19F0C73FD0E23C24
(1410714896.077937) can0 19FA0302#19D3490069006400
(1410714896.080866) can0 19FA0402#E09319FD0C0B7F34
(1410714896.083887) can0 19FA0402#E113C7E911000000
(1410714896.086878) can0 19FA0402#E200F220673007D4
(1410714896.090022) can0 19FA0402#E37712F7FFFFFFF2
(1410714896.092890) can0 19FA0402#E40E7F16B9207411
(1410714896.095881) can0 19FA0402#E501000000F2168B
(1410714896.098872) can0 19FA0402#E609AD2D4D111100
(1410714896.101923) can0 19FA0402#E70000F20122247C
(1410714896.104884) can0 19FA0402#E8D93F12E9FFFFFF
(1410714896.107874) can0 19FA0402#E9F21BE80A9574CA
(1410714896.110865) can0 19FA0402#EA1028000000F217
(1410714896.113917) can0 19FA0402#EBD106CE8D5B1082
(1410714896.116877) can0 19FA0402#ECFFFFFFF2047314
(1410714896.119868) can0 19FA0402#EDAAD2EF11DBFFFF
(1410714896.122858) can0 19FA0402#EEFFF21F390A674E
(1410714896.125941) can0 19FA0402#EFAA1176000000F2
(1410714896.128901) can0 19FA0402#F01C1704C2C72A0E
(1410714896.131892) can0 19FA0402#F1F2FFFFFFF213A2
(1410714896.134852) can0 19FA0402#F21C2C80EE113D00
(1410714896.137934) can0 19FA0402#F30000F214221513
(1410714896.140864) can0 19FA0402#F4B87D1126000000
(1410714896.143885) can0 19FA0402#F5F2FFFFFFFFFFFF
(1410714896.146876) can0 0DF80502#E02F19C73FD0E23C
(1410714896.150050) can0 0DF80502#E124C0A424231143
(1410714896.152857) can0 0DF80502#E24305809E757091
(1410714896.155848) can0 0DF80502#E3B9310385C88F02
(1410714896.158869) can0 0DF80502#E40000000013FC0C
(1410714896.161921) can0 0DF80502#E549008000AC0D00
(1410714896.164881) can0 0DF80502#E60000FFFFFFFFFF
(1410714896.167872) can0 09F80102#36729A16021AB80D
(1410714896.198908) can0 09F80202#1AFC00000300FFFF
(1410714896.223872) can0 09F80102#36729A16021AB80D
(1410714896.323847) can0 09F80102#36729A16021AB80D
(1410714896.423823) can0 09F80102#36729A16021AB80D
(1410714896.448817) can0 09F80202#1BFC00000300FFFF
(1410714896.523768) can0 09F80102#36729A16021AB80D
(1410714896.623743) can0 09F80102#36729A16021AB80D
(1410714896.698756) can0 09F80202#1CFC00000300FFFF
(1410714896.723719) can0 09F80102#36729A16021AB80D
(1410714896.810206) can0 0DF50B11#0198030000FFFFFF
(1410714896.823695) can0 09F80102#36729A16021AB80D
(1410714896.923670) can0 09F80102#36729A16021AB80D
(1410714896.942438) can0 19F212B0#40097F000064FF76
(1410714896.942988) can0 19F212B0#411C0800FFFFFFFF
(1410714896.943537) can0 19F214B0#00ED04C5FF67787F
(1410714896.948725) can0 09F80202#1DFC00000300FFFF
(1410714897.023646) can0 09F80102#36729A16021AB80D
(1410714897.083979) can0 0DF01002#1EF0C73FE0093D24
(1410714897.086573) can0 19FA0302#1ED3490069006400
(1410714897.089564) can0 19FA0402#00931EFD0C0B7F34
(1410714897.092677) can0 19FA0402#0113C7A511FEFFFF
(1410714897.095576) can0 19FA0402#02FFF220673007D4
(1410714897.098566) can0 19FA0402#032412F6FFFFFFF2
(1410714897.101557) can0 19FA0402#040E7F16B9206311
(1410714897.104761) can0 19FA0402#05FBFFFFFFF2168B
(1410714897.107569) can0 19FA0402#0609AD2D3E111600
(1410714897.110560) can0 19FA0402#070000F20122247C
(1410714897.113551) can0 19FA0402#08D91213E1FFFFFF
(1410714897.116724) can0 19FA0402#09F21BE80A95741D
(1410714897.119563) can0 19FA0402#0A102E000000F217
(1410714897.122553) can0 19FA0402#0BD106CE8D84107F
(1410714897.125544) can0 19FA0402#0CFFFFFFF2047314
(1410714897.128657) can0 19FA0402#0DAAD2B911DDFFFF
(1410714897.131556) can0 19FA0402#0EFFF21F390A674E
(1410714897.134547) can0 19FA0402#0F27117D000000F2
(1410714897.137537) can0 19FA0402#101C1704C2C70D0E
(1410714897.140650) can0 19FA0402#11EBFFFFFFF213A2
(1410714897.143549) can0 19FA0402#121C2C8017123E00
(1410714897.146540) can0 19FA0402#130000F214221513
(1410714898.192225) can0 0DF80502#23B9310340DA8F02
(1410714898.195338) can0 0DF80502#240000000013FC0C
(1410714898.198237) can0 0DF80502#2549008000AC0D00
(1410714898.201258) can0 0DF80502#260000FFFFFFFFFF
(1410714898.204218) can0 09F80102#D6719A16871AB80D
(1410714898.236262) can0 09F80202#24FC00000300FFFF
(1410714898.261225) can0 09F80102#D6719A16871AB80D
(1410714898.361201) can0 09F80102#D6719A16871AB80D
(1410714898.442683) can0 19F212B0#60098E000064FF78
(1410714898.443262) can0 19F212B0#611CA104FFFFFFFF
(1410714898.443812) can0 19F214B0#00E304C5FF6D788E
(1410714898.461146) can0 09F80102#D6719A16871AB80D
(1410714898.486201) can0 09F80202#25FC00000300FFFF
(1410714898.561121) can0 09F80102#D6719A16871AB80D
(1410714898.661097) can0 09F80102#D6719A16871AB80D
(1410714898.736109) can0 09F80202#26FC00000300FFFF
(1410714898.761073) can0 09F80102#D6719A16871AB80D
(1410714898.813166) can0 0DF50B11#0195030000FFFFFF
(1410714898.861048) can0 09F80102#D6719A16871AB80D
(1410714898.961054) can0 09F80102#D6719A16871AB80D
(1410714898.986048) can0 09F80202#27FC00000300FFFF
(1410714899.060999) can0 09F80102#D6719A16871AB80D
(1410714899.071436) can0 0DF01002#28F0C73F00583D24
(1410714899.073969) can0 19FA0302#28D3490069006400
(1410714899.076960) can0 19FA0402#409328FD0C0B7F34
(1410714899.079951) can0 19FA0402#4113C74F12FCFFFF
(1410714899.083399) can0 19FA0402#42FFF220673007D4
(1410714899.085963) can0 19FA0402#43EB12F0FFFFFFF2
(1410714899.088923) can0 19FA0402#440E7F16B9209811
(1410714899.091944) can0 19FA0402#45F8FFFFFFF2168B
(1410714899.094935) can0 19FA0402#4609AD2D3F111100
(1410714899.097956) can0 19FA0402#470000F20122247C
(1410714899.100947) can0 19FA0402#48D90713DFFFFFFF
(1410714899.103907) can0 19FA0402#49F21BE80A957486
(1410714899.106928) can0 19FA0402#4A102B000000F217
(1410714899.110102) can0 19FA0402#4BD106CE8D76107B
(1410714899.112940) can0 19FA0402#4CFFFFFFF2047314
(1410714899.115931) can0 19FA0402#4DAAD21F11E5FFFF
(1410714899.118922) can0 19FA0402#4EFFF21F390A674E
(1410714899.121943) can0 19FA0402#4F891171000000F2
(1410714899.124903) can0 19FA0402#501C1704C2C7250E
(1410714899.127924) can0 19FA0402#51EEFFFFFFF213A2
(1410714899.130915) can0 19FA0402#521C2C809D123000
(1410714899.133967) can0 19FA0402#530000F214221513
(1410714899.136927) can0 19FA0402#54B838112B000000
(1410714899.139948) can0 19FA0402#55F2FFFFFFFFFFFF
(1410714899.142939) can0 0DF80502#402F28C73F00583D
(1410714899.145960) can0 0DF80502#412480CEECD5FA42
(1410714899.148920) can0 0DF80502#4243058090627EB0
(1410714899.151911) can0 0DF80502#43B9310340DA8F02
(1410714899.154932) can0 0DF80502#440000000013FC0C
(1410714899.157984) can0 0DF80502#4549008000AC0D00
(1410714899.160944) can0 0DF80502#460000FFFFFFFFFF
(1410714899.163905) can0 09F80102#D6719A16871AB80D
(1410714899.195277) can0 09F80202#29FC00000200FFFF
(1410714899.219904) can0 09F80102#D6719A16871AB80D
(1410714899.227717) can0 1DEFFF01#000AE598B6060404
(1410714899.228327) can0 1DEFFF01#0100000002FFFFFF
(1410714899.277735) can0 11F80E01#001B01985B620E90
(1410714899.278315) can0 11F80E01#01C5C20D60B99916
(1410714899.278864) can0 11F80E01#0254A5A400004AC0
(1410714899.279414) can0 11F80E01#0308FFFFFF7F00FE
(1410714899.319880) can0 09F80102#D6719A16871AB80D
(1410714899.419855) can0 09F80102#D6719A16871AB80D
(1410714899.444880) can0 09F80202#2AFC00000200FFFF
(1410714899.519831) can0 09F80102#D6719A16871AB80D
(1410714899.619807) can0 09F80102#D6719A16871AB80D
(1410714899.694819) can0 09F80202#2BFC00000200FFFF
(1410714899.719752) can0 09F80102#D6719A16871AB80D
(1410714899.814997) can0 0DF50B11#0195030000FFFFFF
(1410714899.819727) can0 09F80102#D6719A16871AB80D
(1410714899.919703) can0 09F80102#D6719A16871AB80D
(1410714899.942408) can0 19F212B0#80099D000064FF75
(1410714899.942988) can0 19F212B0#811C0A00FFFFFFFF
(1410714899.943568) can0 19F214B0#00ED04C5FF67789D
(1410714899.944758) can0 09F80202#2CFC00000200FFFF
(1410714900.019709) can0 09F80102#D6719A16871AB80D
(1410714900.107447) can0 0DF01002#2DF0C73F107F3D24
(1410714900.110041) can0 19FA0302#2DD3490069006400
(1410714900.112727) can0 19FA0402#60932DFD0C0B7F34
(1410714900.115656) can0 19FA0402#6113C79C11FFFFFF
(1410714900.118616) can0 19FA0402#62FFF220673007D4
(1410714900.121912) can0 19FA0402#639512EFFFFFFFF2
(1410714900.124689) can0 19FA0402#640E7F16B9208511
(1410714900.127650) can0 19FA0402#65FFFFFFFFF2168B
(1410714900.130610) can0 19FA0402#6609AD2D5C111300
(1410714900.133906) can0 19FA0402#670000F20122247C
(1410714900.136774) can0 19FA0402#68D94B13E2FFFFFF
(1410714900.139582) can0 19FA0402#69F21B390A9574A9
(1410714900.142603) can0 19FA0402#6A102E000000F217
(1410714900.145594) can0 19FA0402#6BD106CE8DB6106A
(1410714900.148707) can0 19FA0402#6CFFFFFFF2047314
(1410714900.151606) can0 19FA0402#6DAAD2DE11E8FFFF
(1410714900.154597) can0 19FA0402#6EFFF21F390A674E
(1410714900.157587) can0 19FA0402#6F67116D000000F2
(1410714900.160639) can0 19FA0402#701C1704C2C73D0E
(1410714900.163599) can0 19FA0402#71EFFFFFFFF213A2
(1410714900.166590) can0 19FA0402#721C2C8085122F00
(1410714900.169581) can0 19FA0402#730000F214221513
(1410714900.172724) can0 19FA0402#74B8FB101D000000
(1410714900.175623) can0 19FA0402#75F2FFFFFFFFFFFF
(1410714900.178584) can0 0DF80502#602F2DC73F107F3D
(1410714900.181574) can0 0DF80502#612480CEECD5FA42
(1410714900.184779) can0 0DF80502#6243058090627EB0
(1410714900.187586) can0 0DF80502#63B9310340DA8F02
(1410714900.190607) can0 0DF80502#640000000013FC0C
(1410714900.193598) can0 0DF80502#6549008000AC0D00
(1410714900.196772) can0 0DF80502#660000FFFFFFFFFF
(1410714900.199580) can0 09F80102#D6719A16871AB80D
(1410714900.231654) can0 09F80202#2EFC00000800FFFF
(1410714900.256800) can0 09F80102#D6719A16871AB80D
(1410714900.356776) can0 09F80102#D6719A16871AB80D
(1410714900.456782) can0 09F80102#D6719A16871AB80D
(1410714900.481562) can0 09F80202#2FFC00000800FFFF
(1410714900.556788) can0 09F80102#D6719A16871AB80D
(1410714900.656916) can0 09F80102#D6719A16871AB80D
(1410714900.731501) can0 09F80202#30FC00000800FFFF
(1410714900.756800) can0 09F80102#D6719A16871AB80D
(1410714900.816462) can0 0DF50B11#0195030000FFFFFF
(1410714900.851160) can0 11F80E01#201B0108975C0E40
(1410714900.851710) can0 11F80E01#219DC50D80F69816
(1410714900.852259) can0 11F80E01#22514F5900003483
(1410714900.852839) can0 11F80E01#230088AE000000FE
(1410714900.856806) can0 09F80102#D6719A16871AB80D
(1410714900.956782) can0 09F80102#D6719A16871AB80D
(1410714900.981409) can0 09F80202#31FC00000800FFFF
(1410714901.056788) can0 09F80102#D6719A16871AB80D
(1410714901.066431) can0 0DF01002#32F0C73F20A63D24
(1410714901.069300) can0 19FA0302#32D3490069006400
(1410714901.072688) can0 19FA0402#809332FD0C0B7F34
(1410714901.075343) can0 19FA0402#8113C7C911020000
(1410714901.078333) can0 19FA0402#8200F220673007D4
(1410714901.081324) can0 19FA0402#837A12EBFFFFFFF2
(1410714901.084681) can0 19FA0402#840E7F16B920A211
(1410714901.087336) can0 19FA0402#85FDFFFFFFF2168B
(1410714901.090327) can0 19FA0402#8609AD2D68110C00
(1410714901.093287) can0 19FA0402#870000F20122247C
(1410714901.096735) can0 19FA0402#88D9A213E5FFFFFF
(1410714901.099390) can0 19FA0402#89F21B390A957481
(1410714901.102320) can0 19FA0402#8A1037000000F217
(1410714901.105280) can0 19FA0402#8BD106CE8D12115D
(1410714901.108698) can0 19FA0402#8CFFFFFFF2047314
(1410714901.111384) can0 19FA0402#8DAAD2BE11EFFFFF
(1410714901.114313) can0 19FA0402#8EFFF21F390A674E
(1410714901.117274) can0 19FA0402#8F3F1169000000F2
(1410714901.120600) can0 19FA0402#901C1704C2C7420E
(1410714901.123499) can0 19FA0402#91E4FFFFFFF213A2
(1410714901.126307) can0 19FA0402#921C2C803C123300
(1410714901.129298) can0 19FA0402#930000F214221513
(1410714901.132685) can0 19FA0402#94B8601119000000
(1410714901.135340) can0 19FA0402#95F2FFFFFFFFFFFF
(1410714901.138300) can0 0DF80502#802F32C73F20A63D
(1410714901.141291) can0 0DF80502#812480CEECD5FA42
(1410714901.144282) can0 0DF80502#8243058090627EB0
(1410714901.147303) can0 0DF80502#83B9310340DA8F02
(1410714901.150294) can0 0DF80502#840000000013FC0C
(1410714901.153284) can0 0DF80502#8549008000AC0D00
(1410714901.156306) can0 0DF80502#860000FFFFFFFFFF
(1410714901.159357) can0 09F80102#D6719A16871AB80D
(1410714901.190363) can0 09F80202#33FC00000400FFFF
(1410714901.215357) can0 09F80102#D6719A16871AB80D
(1410714901.315363) can0 09F80102#D6719A16871AB80D
(1410714901.415369) can0 09F80102#D6719A16871AB80D
(1410714901.440272) can0 09F80202#34FC00000400FFFF
(1410714901.442744) can0 19F212B0#A009AC000064FF75
(1410714901.443293) can0 19F212B0#A11CA104FFFFFFFF
(1410714901.443842) can0 19F214B0#00E804C5FF6778AC
(1410714901.515437) can0 09F80102#D6719A16871AB80D
(1410714901.615504) can0 09F80102#D6719A16871AB80D
(1410714901.690180) can0 09F80202#35FC00000400FFFF
(1410714901.715449) can0 09F80102#D6719A16871AB80D
(1410714901.815424) can0 09F80102#D6719A16871AB80D
(1410714901.818018) can0 0DF50B11#0195030000FFFFFF
(1410714901.915461) can0 09F80102#D6719A16871AB80D
(1410714901.940089) can0 09F80202#36FC00000400FFFF
(1410714902.015437) can0 09F80102#D6719A16871AB80D
(1410714902.074610) can0 0DF01002#37F0C73F30CD3D24
(1410714902.077021) can0 19FA0302#37D3490069006400
(1410714902.079981) can0 19FA0402#A09337FD0C0B7F34
(1410714902.083491) can0 19FA0402#A113C79511FDFFFF
(1410714902.085993) can0 19FA0402#A2FFF220673007D4
(1410714902.089045) can0 19FA0402#A38112F2FFFFFFF2
(1410714902.091975) can0 19FA0402#A40E7F16B9208711
(1410714902.095454) can0 19FA0402#A506000000F2168B
(1410714902.097987) can0 19FA0402#A609AD2D8E110800
(1410714902.101038) can0 19FA0402#A70000F20122247C
(1410714902.103968) can0 19FA0402#A8D98E13E4FFFFFF
(1410714902.107294) can0 19FA0402#A9F21B390A95749E
(1410714902.110224) can0 19FA0402#AA1036000000F217
(1410714902.113001) can0 19FA0402#ABD106CE8DAF1062
(1410714902.115992) can0 19FA0402#ACFFFFFFF2047314
(1410714902.119379) can0 19FA0402#ADAAD2D411FDFFFF
(1410714902.121973) can0 19FA0402#AEFFF21F390A674E
(1410714902.125025) can0 19FA0402#AF801166000000F2
(1410714902.127985) can0 19FA0402#B01C1704C2C74C0E
(1410714902.131373) can0 19FA0402#B1DFFFFFFFF213A2
(1410714902.133967) can0 19FA0402#B21C2C8058123600
(1410714902.136988) can0 19FA0402#B30000F214221513
(1410714902.139979) can0 19FA0402#B4B8481116000000
(1410714902.143519) can0 19FA0402#B5F2FFFFFFFFFFFF
(1410714902.145991) can0 0DF80502#A02F37C73F30CD3D
(1410714902.148981) can0 0DF80502#A12480CEECD5FA42
(1410714902.151972) can0 0DF80502#A243058090627EB0
(1410714902.155360) can0 0DF80502#A3B9310340DA8F02
(1410714902.157984) can0 0DF80502#A40000000013FC0C
(1410714902.160975) can0 0DF80502#A549008000AC0D00
(1410714902.163996) can0 0DF80502#A60000FFFFFFFFFF
(1410714902.166956) can0 09F80102#D6719A16871AB80D
(1410714902.199396) can0 09F80202#38FC00000600FFFF
(1410714902.223963) can0 09F80102#D6719A16871AB80D
(1410714902.323939) can0 09F80102#D6719A16871AB80D
(1410714902.423914) can0 09F80102#D6719A16871AB80D
(1410714902.448939) can0 09F80202#39FC00000600FFFF
(1410714902.523890) can0 09F80102#D6719A16871AB80D
(1410714902.623835) can0 09F80102#D6719A16871AB80D
(1410714902.698847) can0 09F80202#3AFC00000600FFFF
(1410714902.717493) can0 11F80E01#401B01A929C40CA0
(1410714902.718043) can0 11F80E01#4132B90D60019A16
(1410714902.718592) can0 11F80E01#42600DE400007A83
(1410714902.719172) can0 11F80E01#43007CCA000000FE
(1410714902.723811) can0 09F80102#D6719A16871AB80D
(1410714902.819453) can0 0DF50B11#0195030000FFFFFF
(1410714902.823786) can0 09F80102#D6719A16871AB80D
(1410714902.923762) can0 09F80102#D6719A16871AB80D
(1410714902.942530) can0 19F212B0#C009BB000064FF77
(1410714902.943079) can0 19F212B0#C11C0900FFFFFFFF
(1410714902.943629) can0 19F214B0#00E904C5FF6B78BB
(1410714902.948786) can0 09F80202#3BFC00000600FFFF
(1410714903.023737) can0 09F80102#D6719A16871AB80D
(1410714903.086146) can0 0DF01002#3CF0C73F40F43D24
(1410714903.088740) can0 19FA0302#3CD3490069006400
(1410714903.091700) can0 19FA0402#C0933CFD0C0B7F34
(1410714903.094660) can0 19FA0402#C113C7B012EEFFFF
(1410714903.097956) can0 19FA0402#C2FFF220673007D4
(1410714903.100672) can0 19FA0402#C31F13F1FFFFFFF2
(1410714903.103693) can0 19FA0402#C40E7F16B9203711
(1410714903.106684) can0 19FA0402#C502000000F2168B
(1410714903.110072) can0 19FA0402#C609AD2D95110800
(1410714903.112727) can0 19FA0402#C70000F20122247C
(1410714903.115687) can0 19FA0402#C8D98313E9FFFFFF
(1410714903.118647) can0 19FA0402#C9F21B390A9574E0
(1410714903.121943) can0 19FA0402#CA102D000000F217
(1410714903.124720) can0 19FA0402#CBD106CE8DAF106C
(1410714903.127680) can0 19FA0402#CCFFFFFFF2047314
(1410714903.130671) can0 19FA0402#CDAAD29411F6FFFF
(1410714903.133967) can0 19FA0402#CEFFF21F390A674E
(1410714903.136744) can0 19FA0402#CFA31160000000F2
(1410714903.139704) can0 19FA0402#D01C1704C2C7EB0D
(1410714903.142664) can0 19FA0402#D1E4FFFFFFF213A2
(1410714903.145960) can0 19FA0402#D21C2C8043123400
(1410714903.148737) can0 19FA0402#D30000F214221513
(1410714903.151698) can0 19FA0402#D4B8DF1019000000
(1410714903.154658) can0 19FA0402#D5F2FFFFFFFFFFFF
(1410714903.157954) can0 0DF80502#C02F3CC73F40F43D
(1410714903.160670) can0 0DF80502#C12480CEECD5FA42
(1410714903.163691) can0 0DF80502#C243058090627EB0
(1410714903.166651) can0 0DF80502#C3B9310340DA8F02
(1410714903.170069) can0 0DF80502#C40000000013FC0C
(1410714903.172724) can0 0DF80502#C549008000AC0D00
(1410714903.175715) can0 0DF80502#C60000FFFFFFFFFF
(1410714903.178645) can0 09F80102#D6719A16871AB80D
(1410714903.210688) can0 09F80202#3DFC00000500FFFF
(1410714903.235682) can0 09F80102#D6719A16871AB80D
(1410714903.335627) can0 09F80102#D6719A16871AB80D
(1410714903.435603) can0 09F80102#D6719A16871AB80D
(1410714903.460749) can0 09F80202#3EFC00000500FFFF
(1410714903.535548) can0 09F80102#D6719A16871AB80D
(1410714903.635523) can0 09F80102#D6719A16871AB80D
(1410714903.710535) can0 09F80202#3FFC00000500FFFF
(1410714903.735499) can0 09F80102#D6719A16871AB80D
(1410714903.770808) can0 11F80E01#601B0188F64A0ED0
(1410714903.771357) can0 11F80E01#61FBB80DA0009A16
(1410714903.771937) can0 11F80E01#6260FFFF00002640
(1410714903.772486) can0 11F80E01#6308154F000000FE
(1410714903.820917) can0 0DF50B11#0195030000FFFFFF
(1410714903.835474) can0 09F80102#D6719A16871AB80D
(1410714903.935450) can0 09F80102#D6719A16871AB80D
(1410714903.960749) can0 09F80202#40FC00000500FFFF
(1410714904.035456) can0 09F80102#D6719A16871AB80D
(1410714904.094904) can0 0DF01002#41F0C73F501B3E24
(1410714904.097376) can0 19FA0302#41D3490069006400
(1410714904.100672) can0 19FA0402#E09341FD0C0B7F34
(1410714904.103541) can0 19FA0402#E113C70812ECFFFF
(1410714904.106379) can0 19FA0402#E2FFF220673007D4
(1410714904.109370) can0 19FA0402#E3EF12EFFFFFFFF2
(1410714904.112727) can0 19FA0402#E40E7F16B9206B11
(1410714904.115412) can0 19FA0402#E5EEFFFFFFF2168B
(1410714904.118372) can0 19FA0402#E609AD2D6211FDFF
(1410714904.121333) can0 19FA0402#E7FFFFF20122247C
(1410714904.124720) can0 19FA0402#E8D9AD13EAFFFFFF
(1410714904.127344) can0 19FA0402#E9F21B390A95748F
(1410714904.130366) can0 19FA0402#EA102B000000F217
(1410714904.133326) can0 19FA0402#EBD106CE8DED1072
(1410714904.136744) can0 19FA0402#ECFFFFFFF2047314
(1410714904.139429) can0 19FA0402#EDAAD29111F7FFFF
(1410714904.142359) can0 19FA0402#EEFFF21F390A674E
(1410714904.145350) can0 19FA0402#EF801164000000F2
(1410714904.148768) can0 19FA0402#F01C1704C2C7CF0D
(1410714904.151423) can0 19FA0402#F1F7FFFFFFF213A2
(1410714904.154353) can0 19FA0402#F21C2C80AF113400
(1410714904.157313) can0 19FA0402#F30000F214221513
(1410714904.160639) can0 19FA0402#F4B88E111D000000
(1410714904.163538) can0 19FA0402#F5F2FFFFFFFFFFFF
(1410714904.166376) can0 0DF80502#E02F41C73F501B3E
(1410714904.169337) can0 0DF80502#E12480CEECD5FA42
(1410714904.172724) can0 0DF80502#E243058090627EB0
(1410714904.175471) can0 0DF80502#E3B9310340DA8F02
(1410714904.178370) can0 0DF80502#E40000000013FC0C
(1410714904.181330) can0 0DF80502#E549008000AC0D00
(1410714904.184779) can0 0DF80502#E60000FFFFFFFFFF
(1410714904.187342) can0 09F80102#D6719A16871AB80D
(1410714904.219508) can0 09F80202#42FC00000300FFFF
(1410714904.227381) can0 1DEFFF01#200AE598B6060404
(1410714904.227961) can0 1DEFFF01#2100000002FFFFFF
(1410714904.244746) can0 09F80102#D6719A16871AB80D
(1410714904.291285) can0 11F80E01#801B014875520E90
(1410714904.291834) can0 11F80E01#81DC9F0D00B4A616
(1410714904.292384) can0 11F80E01#825CD9CBE301B583
(1410714904.292933) can0 11F80E01#830065C6000000FE
(1410714904.344294) can0 09F80102#D6719A16871AB80D
(1410714904.442744) can0 19F212B0#E009CA000064FF75
(1410714904.443293) can0 19F212B0#E11C0900FFFFFFFF
(1410714904.443842) can0 19F214B0#00ED04C5FF6B78CA
(1410714904.444392) can0 09F80102#D6719A16871AB80D
(1410714904.469294) can0 09F80202#43FC00000300FFFF
(1410714904.544245) can0 09F80102#D6719A16871AB80D
(1410714904.644221) can0 09F80102#D6719A16871AB80D
(1410714904.719477) can0 09F80202#44FC00000300FFFF
(1410714904.744166) can0 09F80102#D6719A16871AB80D
(1410714904.822382) can0 0DF50B11#0195030000FFFFFF
(1410714904.844141) can0 09F80102#D6719A16871AB80D
(1410714904.944117) can0 09F80102#D6719A16871AB80D
(1410714904.969141) can0 09F80202#45FC00000300FFFF
(1410714905.044062) can0 09F80102#D6719A16871AB80D
(1410714905.057642) can0 0DF01002#46F0C73F60423E24
(1410714905.060053) can0 19FA0302#46D3490069006400
(1410714905.063563) can0 19FA0402#009346FD0C0B7F34
(1410714905.066035) can0 19FA0402#0113C71D12EEFFFF
(1410714905.069086) can0 19FA0402#02FFF220673007D4
(1410714905.072047) can0 19FA0402#033A13EEFFFFFFF2
(1410714905.075404) can0 19FA0402#040E7F16B9202311
(1410714905.078059) can0 19FA0402#05F3FFFFFFF2168B
(1410714905.081080) can0 19FA0402#0609AD2D7011F0FF
(1410714905.084040) can0 19FA0402#07FFFFF20122247C
(1410714905.087397) can0 19FA0402#08D9F913EDFFFFFF
(1410714905.090052) can0 19FA0402#09F21B390A9574A0
(1410714905.093073) can0 19FA0402#0A1022000000F217
(1410714905.096033) can0 19FA0402#0BD106CE8DDA1070
(1410714905.099451) can0 19FA0402#0CFFFFFFF2047314
(1410714905.102015) can0 19FA0402#0DAAD2F511ECFFFF
(1410714905.105067) can0 19FA0402#0EFFF21F390A674E
(1410714905.108027) can0 19FA0402#0F711169000000F2
(1410714905.111414) can0 19FA0402#101C1704C2C7E10D
(1410714905.114039) can0 19FA0402#1102000000F213A2
(1410714905.117060) can0 19FA0402#121C2C8022123300
(1410714905.120020) can0 19FA0402#130000F214221513
(1410714905.123530) can0 19FA0402#14B83B1118000000
(1410714905.126063) can0 19FA0402#15F2FFFFFFFFFFFF
(1410714905.129084) can0 0DF80502#002F46C73F60423E
(1410714905.132014) can0 0DF80502#012480CEECD5FA42
(1410714905.135462) can0 0DF80502#0243058090627EB0
(1410714905.138026) can0 0DF80502#03B9310340DA8F02
(1410714905.141077) can0 0DF80502#040000000013FC0C
(1410714905.144038) can0 0DF80502#0549008000AC0D00
(1410714905.147395) can0 0DF80502#060000FFFFFFFFFF
(1410714905.150111) can0 09F80102#D6719A16871AB80D
(1410714905.182063) can0 09F80202#47FC00000300FFFF
(1410714905.207362) can0 09F80102#D6719A16871AB80D
(1410714905.307337) can0 09F80102#D6719A16871AB80D
(1410714905.406977) can0 09F80102#D6719A16871AB80D
(1410714905.432001) can0 09F80202#48FC00000300FFFF
(1410714905.506922) can0 09F80102#D6719A16871AB80D
(1410714905.606898) can0 09F80102#D6719A16871AB80D
(1410714905.682063) can0 09F80202#49FC00000300FFFF
(1410714905.706873) can0 09F80102#D6719A16871AB80D
(1410714905.806849) can0 09F80102#D6719A16871AB80D
(1410714905.906824) can0 09F80102#D6719A16871AB80D
(1410714905.924006) can0 0DF50B11#0195030000FFFFFF
(1410714905.931849) can0 09F80202#4AFC00000300FFFF
(1410714905.942530) can0 19F212B0#0009D9000064FF51
(1410714905.943079) can0 19F212B0#011C0A00FFFFFFFF
(1410714905.943629) can0 19F214B0#00EC04C5FF6D78D9
(1410714906.006770) can0 09F80102#D6719A16871AB80D
(1410714906.066248) can0 0DF01002#4BF0C73F70693E24
(1410714906.068842) can0 19FA0302#4BD3490069006400
(1410714906.071772) can0 19FA0402#20934BFD0C0B7F34
(1410714906.074732) can0 19FA0402#2113C7A512E8FFFF
(1410714906.078028) can0 19FA0402#22FFF220673007D4
(1410714906.080744) can0 19FA0402#23E412F1FFFFFFF2
(1410714906.083735) can0 19FA0402#240E7F16B9205211
(1410714906.086726) can0 19FA0402#25F9FFFFFFF2168B
(1410714906.090083) can0 19FA0402#2609AD2D8411EEFF
(1410714906.092768) can0 19FA0402#27FFFFF20122247C
(1410714906.095759) can0 19FA0402#28D97213E9FFFFFF
(1410714906.098719) can0 19FA0402#29F21B390A9574B5
(1410714906.102015) can0 19FA0402#2A101B000000F217
(1410714906.104823) can0 19FA0402#2BD106CE8DD31077
(1410714906.107752) can0 19FA0402#2CFFFFFFF2047314
(1410714906.110712) can0 19FA0402#2DAAD25012E3FFFF
(1410714906.114008) can0 19FA0402#2EFFF21F390A674E
(1410714906.116755) can0 19FA0402#2F96116B000000F2
(1410714906.119746) can0 19FA0402#301C1704C2C7E60D
(1410714906.122736) can0 19FA0402#31F6FFFFFFF213A2
(1410714906.126032) can0 19FA0402#321C2C8077123200
(1410714906.128809) can0 19FA0402#330000F214221513
(1410714906.131739) can0 19FA0402#34B8421113000000
(1410714906.134730) can0 19FA0402#35F2FFFFFFFFFFFF
(1410714906.138026) can0 0DF80502#202F4BC73F70693E
(1410714906.140711) can0 0DF80502#212480CEECD5FA42
(1410714906.143732) can0 0DF80502#2243058090627EB0
(1410714906.146693) can0 0DF80502#23B9310340DA8F02
(1410714906.150111) can0 0DF80502#240000000013FC0C
(1410714906.152796) can0 0DF80502#2549008000AC0D00
(1410714906.155756) can0 0DF80502#260000FFFFFFFFFF
(1410714906.158686) can0 09F80102#D6719A16871AB80D
(1410714906.190760) can0 09F80202#4CFC00000200FFFF
(1410714906.215754) can0 09F80102#D6719A16871AB80D
(1410714906.315699) can0 09F80102#D6719A16871AB80D
(1410714906.415644) can0 09F80102#D6719A16871AB80D
(1410714906.440760) can0 09F80202#4DFC00000200FFFF
(1410714906.515620) can0 09F80102#D6719A16871AB80D
(1410714906.615595) can0 09F80102#D6719A16871AB80D
(1410714906.690607) can0 09F80202#4EFC00000200FFFF
(1410714906.715571) can0 09F80102#D6719A16871AB80D
(1410714906.815516) can0 09F80102#D6719A16871AB80D
(1410714906.915491) can0 09F80102#D6719A16871AB80D
(1410714906.925532) can0 0DF50B11#0195030000FFFFFF
(1410714906.940791) can0 09F80202#4FFC00000200FFFF
(1410714907.015467) can0 09F80102#D6719A16871AB80D
(1410714907.075007) can0 0DF01002#50F0C73F80903E24
(1410714907.077418) can0 19FA0302#50D3490069006400
(1410714907.080714) can0 19FA0402#409350FD0C0B7F34
(1410714907.083552) can0 19FA0402#4113C79011F8FFFF
(1410714907.086420) can0 19FA0402#42FFF220673007D4
(1410714907.089411) can0 19FA0402#43B512F9FFFFFFF2
(1410714907.092768) can0 19FA0402#440E7F16B920B511
(1410714907.095454) can0 19FA0402#45F3FFFFFFF2168B
(1410714907.098444) can0 19FA0402#4609AD2DB011F0FF
(1410714907.101405) can0 19FA0402#47FFFFF20122247C
(1410714907.104792) can0 19FA0402#48D9CB13E4FFFFFF
(1410714907.107386) can0 19FA0402#49F21B390A957498
(1410714907.110438) can0 19FA0402#4A101C000000F217
(1410714907.113398) can0 19FA0402#4BD106CE8D911085
(1410714907.116785) can0 19FA0402#4CFFFFFFF2047314
(1410714907.119440) can0 19FA0402#4DAAD27012DFFFFF
(1410714907.122431) can0 19FA0402#4EFFF21F390A674E
(1410714907.125391) can0 19FA0402#4F6A1167000000F2
(1410714907.128809) can0 19FA0402#501C1704C2C7220E
(1410714907.131434) can0 19FA0402#51EDFFFFFFF213A2
(1410714907.134425) can0 19FA0402#521C2C808C123300
(1410714907.137385) can0 19FA0402#530000F214221513
(1410714907.140711) can0 19FA0402#54B8391111000000
(1410714907.143580) can0 19FA0402#55F2FFFFFFFFFFFF
(1410714907.146418) can0 0DF80502#402F50C73F80903E
(1410714907.149378) can0 0DF80502#412480CEECD5FA42
(1410714907.152766) can0 0DF80502#4243058090627EB0
(1410714907.155421) can0 0DF80502#43B9310340DA8F02
(1410714907.158442) can0 0DF80502#440000000013FC0C
(1410714907.161402) can0 0DF80502#4549008000AC0D00
(1410714907.164790) can0 0DF80502#460000FFFFFFFFFF
(1410714907.167384) can0 09F80102#D6719A16871AB80D
(1410714907.171473) can0 11F80E01#A01B0132D74A10B0
(1410714907.172022) can0 11F80E01#A197E30D60409116
(1410714907.172572) can0 11F80E01#A26EF0BD8601A840
(1410714907.173121) can0 11F80E01#A300E5BE000000FE
(1410714907.199519) can0 09F80202#51FC00000400FFFF
(1410714907.224818) can0 09F80102#D6719A16871AB80D
(1410714907.324732) can0 09F80102#D6719A16871AB80D
(1410714907.424342) can0 09F80102#D6719A16871AB80D
(1410714907.442561) can0 19F212B0#2009E8000064FF51
(1410714907.443140) can0 19F212B0#211C0800FFFFFFFF
(1410714907.443690) can0 19F214B0#00EC04C5FF6D78E8
(1410714907.449366) can0 09F80202#52FC00000400FFFF
(1410714907.524317) can0 09F80102#D6719A16871AB80D
(1410714907.624262) can0 09F80102#D6719A16871AB80D
(1410714907.699580) can0 09F80202#53FC00000400FFFF
(1410714907.724238) can0 09F80102#D6719A16871AB80D
(1410714907.824213) can0 09F80102#D6719A16871AB80D
(1410714907.924189) can0 09F80102#D6719A16871AB80D
(1410714907.927088) can0 0DF50B11#0198030000FFFFFF
(1410714907.949213) can0 09F80202#54FC00000400FFFF
(1410714908.024134) can0 09F80102#D6719A16871AB80D
(1410714908.086176) can0 0DF01002#55F0C73F90B73E24
(1410714908.089106) can0 19FA0302#55D3490069006400
(1410714908.092097) can0 19FA0402#609355FD0C0B7F34
(1410714908.095454) can0 19FA0402#6113C74C11FCFFFF
(1410714908.098078) can0 19FA0402#62FFF220673007D4
(1410714908.101130) can0 19FA0402#636512FFFFFFFFF2
(1410714908.104090) can0 19FA0402#640E7F16B920C311
(1410714908.107386) can0 19FA0402#65E9FFFFFFF2168B
(1410714908.110133) can0 19FA0402#6609AD2D9511F0FF
(1410714908.113123) can0 19FA0402#67FFFFF20122247C
(1410714908.116084) can0 19FA0402#68D9F513E8FFFFFF
(1410714908.119440) can0 19FA0402#69F21B390A95749C
(1410714908.122095) can0 19FA0402#6A101F000000F217
(1410714908.125086) can0 19FA0402#6BD106CE8DA21080
(1410714908.128077) can0 19FA0402#6CFFFFFFF2047314
(1410714908.131464) can0 19FA0402#6DAAD21812EAFFFF
(1410714908.134089) can0 19FA0402#6EFFF21FE80AB84D
(1410714908.137110) can0 19FA0402#6F761167000000F2
(1410714908.140070) can0 19FA0402#701C1704C2C75D0E
(1410714908.143580) can0 19FA0402#71E6FFFFFFF213A2
(1410714908.146082) can0 19FA0402#721C2C8080123200
(1410714908.149104) can0 19FA0402#730000F214221513
(1410714908.152094) can0 19FA0402#74B8881110000000
(1410714908.155451) can0 19FA0402#75F2FFFFFFFFFFFF
(1410714908.158076) can0 0DF80502#602F55C73F90B73E
(1410714908.161097) can0 0DF80502#612480CEECD5FA42
(1410714908.164057) can0 0DF80502#6243058090627EB0
(1410714908.167384) can0 0DF80502#63B9310340DA8F02
(1410714908.170130) can0 0DF80502#640000000013FC0C
(1410714908.173121) can0 0DF80502#6549008000AC0D00
(1410714908.176081) can0 0DF80502#660000FFFFFFFFFF
(1410714908.179713) can0 09F80102#D6719A16871AB80D
(1410714908.210169) can0 09F80202#56FC00000000FFFF
(1410714908.235468) can0 09F80102#D6719A16871AB80D
(1410714908.335474) can0 09F80102#D6719A16871AB80D
(1410714908.435023) can0 09F80102#D6719A16871AB80D
(1410714908.460017) can0 09F80202#57FC00000000FFFF
(1410714908.534968) can0 09F80102#D6719A16871AB80D
(1410714908.634943) can0 09F80102#D6719A16871AB80D
(1410714908.710169) can0 09F80202#58FC00000000FFFF
(1410714908.734919) can0 09F80102#D6719A16871AB80D
(1410714908.834895) can0 09F80102#D6719A16871AB80D
(1410714908.928553) can0 0DF50B11#0198030000FFFFFF
(1410714908.934870) can0 09F80102#D6719A16871AB80D
(1410714908.942591) can0 19F212B0#4009F7000064FF50
(1410714908.943171) can0 19F212B0#411C0A00FFFFFFFF
(1410714908.943720) can0 19F214B0#00EC04C5FF6D78F7
(1410714908.959864) can0 09F80202#59FC00000000FFFF
(1410714909.034815) can0 09F80102#D6719A16871AB80D
(1410714909.098933) can0 0DF01002#5AF0C73FA0DE3E24
(1410714909.102045) can0 19FA0302#5AD3490069006400
(1410714909.104792) can0 19FA0402#80935AFD0C0B7F34
(1410714909.107783) can0 19FA0402#8113C77911FEFFFF
(1410714909.110773) can0 19FA0402#82FFF220673007D4
(1410714909.114069) can0 19FA0402#831C1206000000F2
(1410714909.116785) can0 19FA0402#840E7F16B920C111
(1410714909.117854) can0 11F80E01#C01B01985B620EA0
(1410714909.118403) can0 11F80E01#C1C5C20D40B99916
(1410714909.118952) can0 11F80E01#C278A5A400004A40
(1410714909.119532) can0 11F80E01#C300FFFFFF7F00FE
(1410714909.120081) can0 19FA0402#85EAFFFFFFF2168B
(1410714909.122767) can0 19FA0402#8609AD2DE111F2FF
(1410714909.126063) can0 19FA0402#87FFFFF20122247C
(1410714909.128840) can0 19FA0402#88D94114E6FFFFFF
(1410714909.131770) can0 19FA0402#89F21B390A957497
(1410714909.134760) can0 19FA0402#8A101C000000F217
(1410714909.138056) can0 19FA0402#8BD106CE8D78107C
(1410714909.140772) can0 19FA0402#8CFFFFFFF2047314
(1410714909.143824) can0 19FA0402#8DAAD22D12F0FFFF
(1410714909.146754) can0 19FA0402#8EFFF21FE80AB84D
(1410714909.150202) can0 19FA0402#8F7C1166000000F2
(1410714909.152827) can0 19FA0402#901C1704C2C7630E
(1410714909.155787) can0 19FA0402#91DCFFFFFFF213A2
(1410714909.158747) can0 19FA0402#921C2C8098113800
(1410714909.162043) can0 19FA0402#930000F214221513
(1410714909.164790) can0 19FA0402#94B86C1113000000
(1410714909.167811) can0 19FA0402#95F2FFFFFFFFFFFF
(1410714909.170771) can0 0DF80502#802F5AC73FA0DE3E
(1410714909.174067) can0 0DF80502#812480CEECD5FA42
(1410714909.176783) can0 0DF80502#8243058090627EB0
(1410714909.179774) can0 0DF80502#83B9310340DA8F02
(1410714909.182764) can0 0DF80502#840000000013FC0C
(1410714909.186060) can0 0DF80502#8549008000AC0D00
(1410714909.188898) can0 0DF80502#860000FFFFFFFFFF
(1410714909.191767) can0 09F80102#D6719A16871AB80D
(1410714909.223841) can0 09F80202#5BFC00000300FFFF
(1410714909.226984) can0 1DEFFF01#400AE598B6060404
(1410714909.227564) can0 1DEFFF01#4100000002FFFFFF
(1410714909.248865) can0 09F80102#D6719A16871AB80D
(1410714909.348872) can0 09F80102#D6719A16871AB80D
(1410714909.448878) can0 09F80102#D6719A16871AB80D
(1410714909.473719) can0 09F80202#5CFC00000300FFFF
(1410714909.548884) can0 09F80102#D6719A16871AB80D
(1410714909.648890) can0 09F80102#D6719A16871AB80D
(1410714909.723658) can0 09F80202#5DFC00000300FFFF
(1410714909.748896) can0 09F80102#D6719A16871AB80D
(1410714909.848902) can0 09F80102#D6719A16871AB80D
(1410714909.929896) can0 0DF50B11#0198030000FFFFFF
(1410714909.949000) can0 09F80102#D6719A16871AB80D
(1410714909.973566) can0 09F80202#5EFC00000300FFFF
(1410714910.048884) can0 09F80102#D6719A16871AB80D
(1410714910.109003) can0 0DF01002#5FF0C73FB0053F24
(1410714910.111475) can0 19FA0302#5FD3490069006400
(1410714910.114466) can0 19FA0402#A0935FFD0C0B7F34
(1410714910.117457) can0 19FA0402#A113C7DC11FCFFFF
(1410714910.120722) can0 19FA0402#A2FFF220673064D5
(1410714910.123591) can0 19FA0402#A3A91200000000F2
(1410714910.126459) can0 19FA0402#A40E7F16B920C611
(1410714910.129450) can0 19FA0402#A5E8FFFFFFF2168B
(1410714910.132777) can0 19FA0402#A609AD2DCE11F4FF
(1410714910.135493) can0 19FA0402#A7FFFFF20122247C
(1410714910.138453) can0 19FA0402#A8D98B13DEFFFFFF
(1410714910.141444) can0 19FA0402#A9F21B390A9574A8
(1410714910.144801) can0 19FA0402#AA101A000000F217
(1410714910.147456) can0 19FA0402#ABD106CE8DC00F81
(1410714910.150446) can0 19FA0402#ACFFFFFFF2047314
(1410714910.153437) can0 19FA0402#ADAAD2F911F1FFFF
(1410714910.156794) can0 19FA0402#AEFFF21FE80AB84D
(1410714910.159479) can0 19FA0402#AF9B1161000000F2
(1410714910.162470) can0 19FA0402#B01C1704C2C7750E
(1410714910.165461) can0 19FA0402#B1E2FFFFFFF213A2
(1410714910.168848) can0 19FA0402#B21C2C800B123300
(1410714910.171473) can0 19FA0402#B30000F214221513
(1410714910.174464) can0 19FA0402#B4B8C8101A000000
(1410714910.177454) can0 19FA0402#B5F2FFFFFFFFFFFF
(1410714910.180750) can0 0DF80502#A02F5FC73FB0053F
(1410714910.183619) can0 0DF80502#A12480CEECD5FA42
(1410714910.186457) can0 0DF80502#A243058090627EB0
(1410714910.189417) can0 0DF80502#A3B9310340DA8F02
(1410714910.192835) can0 0DF80502#A40000000013FC0C
(1410714910.195490) can0 0DF80502#A549008000AC0D00
(1410714910.198481) can0 0DF80502#A60000FFFFFFFFFF
(1410714910.201411) can0 09F80102#D6719A16871AB80D
(1410714910.232844) can0 09F80202#60FC00000300FFFF
(1410714910.257441) can0 09F80102#D6719A16871AB80D
(1410714910.357417) can0 09F80102#D6719A16871AB80D
(1410714910.442591) can0 19F212B0#60090B000064FF50
(1410714910.443171) can0 19F212B0#611C0900FFFFFFFF
(1410714910.443720) can0 19F214B0#00E504C5FF6D780B
(1410714910.457362) can0 09F80102#D6719A16871AB80D
(1410714910.482386) can0 09F80202#61FC00000300FFFF
(1410714910.557337) can0 09F80102#D6719A16871AB80D
(1410714910.657313) can0 09F80102#D6719A16871AB80D
(1410714910.732325) can0 09F80202#62FC00000300FFFF
(1410714910.757288) can0 09F80102#D6719A16871AB80D
(1410714910.857233) can0 09F80102#D6719A16871AB80D
(1410714910.931269) can0 0DF50B11#0198030000FFFFFF
(1410714910.957209) can0 09F80102#D6719A16871AB80D
(1410714910.982233) can0 09F80202#63FC00000300FFFF
(1410714911.057185) can0 09F80102#D6719A16871AB80D
(1410714911.075495) can0 0DF01002#64F0C73FC02C3F24
(1410714911.078150) can0 19FA0302#64D3490069006400
(1410714911.081141) can0 19FA0402#C09364FD0C0B7F34
(1410714911.084162) can0 19FA0402#C113C79A11F6FFFF
(1410714911.087427) can0 19FA0402#C2FFF220673064D5
(1410714911.090174) can0 19FA0402#C3F912FCFFFFFFF2
(1410714912.637720) can0 09F80102#D6719A16871AB80D
(1410714912.712916) can0 09F80202#6CFC00000200FFFF
(1410714912.737666) can0 09F80102#D6719A16871AB80D
(1410714912.837641) can0 09F80102#D6719A16871AB80D
(1410714912.934168) can0 0DF50B11#0195030000FFFFFF
(1410714912.937617) can0 09F80102#D6719A16871AB80D
(1410714912.962611) can0 09F80202#6DFC00000200FFFF
(1410714913.037562) can0 09F80102#D6719A16871AB80D
(1410714913.097529) can0 0DF01002#6EF0C73FE07A3F24
(1410714913.100764) can0 19FA0302#6ED3490069006400
(1410714913.103571) can0 19FA0402#00936EFD0C0B7F34
(1410714913.106501) can0 19FA0402#0113C70B12F3FFFF
(1410714913.109522) can0 19FA0402#02FFF220673064D5
(1410714913.112849) can0 19FA0402#031013F0FFFFFFF2
(1410714913.115504) can0 19FA0402#040E7F16B9208C11
(1410714913.118525) can0 19FA0402#05ECFFFFFFF2168B
(1410714913.121516) can0 19FA0402#0609AD2DA0110400
(1410714913.124842) can0 19FA0402#070000F201D0247C
(1410714913.127497) can0 19FA0402#08D9D013D5FFFFFF
(1410714913.130488) can0 19FA0402#09F21B390A957467
(1410714913.133509) can0 19FA0402#0A1021000000F217
(1410714913.136896) can0 19FA0402#0BD106CE8D37107D
(1410714913.139582) can0 19FA0402#0CFFFFFFF2047314
(1410714913.142512) can0 19FA0402#0DAAD22812F5FFFF
(1410714913.145502) can0 19FA0402#0EFFF21FE80AB84D
(1410714913.149042) can0 19FA0402#0FC81152000000F2
(1410714913.151484) can0 19FA0402#101C1704C2C7F00D
(1410714913.154505) can0 19FA0402#11F6FFFFFFF213A2
(1410714913.157496) can0 19FA0402#121C2C80A1122A00
(1410714913.160761) can0 19FA0402#130000F214221513
(1410714913.163569) can0 19FA0402#14B8FE1028000000
(1410714913.166529) can0 19FA0402#15F2FFFFFFFFFFFF
(1410714913.169520) can0 0DF80502#002F6EC73FE07A3F
(1410714913.172846) can0 0DF80502#012480CEECD5FA42
(1410714913.175501) can0 0DF80502#0243058090627EB0
(1410714913.178492) can0 0DF80502#03B9310340DA8F02
(1410714913.181513) can0 0DF80502#040000000013FC0C
(1410714913.184870) can0 0DF80502#0549008000AC0D00
(1410714913.187525) can0 0DF80502#060000FFFFFFFFFF
(1410714913.190485) can0 09F80102#D6719A16871AB80D
(1410714913.221552) can0 09F80202#6FFC00000000FFFF
(1410714913.246516) can0 09F80102#D6719A16871AB80D
(1410714913.346491) can0 09F80102#D6719A16871AB80D
(1410714913.442652) can0 19F212B0#A00929000064FF50
(1410714913.443232) can0 19F212B0#A11C0900FFFFFFFF
(1410714913.443781) can0 19F214B0#00EC04C5FF667829
(1410714913.446467) can0 09F80102#D6719A16871AB80D
(1410714913.471583) can0 09F80202#70FC00000000FFFF
(1410714913.546442) can0 09F80102#D6719A16871AB80D
(1410714913.646387) can0 09F80102#D6719A16871AB80D
(1410714913.721369) can0 09F80202#71FC00000000FFFF
(1410714913.746333) can0 09F80102#D6719A16871AB80D
(1410714913.846308) can0 09F80102#D6719A16871AB80D
(1410714913.935694) can0 0DF50B11#0195030000FFFFFF
(1410714913.946284) can0 09F80102#D6719A16871AB80D
(1410714913.971552) can0 09F80202#72FC00000000FFFF
(1410714914.046229) can0 09F80102#D6719A16871AB80D
(1410714914.055811) can0 0DF01002#73F0C73FF0A13F24
(1410714914.058222) can0 19FA0302#73D3490069006400
(1410714914.061213) can0 19FA0402#209373FD0C0B7F34
(1410714914.064204) can0 19FA0402#2113C77211F3FFFF
(1410714914.067438) can0 19FA0402#22FFF220673064D5
(1410714914.070216) can0 19FA0402#23F312EBFFFFFFF2
(1410714914.073206) can0 19FA0402#240E7F16B920A511
(1410714914.076228) can0 19FA0402#25F6FFFFFFF2168B
(1410714914.079493) can0 19FA0402#2609AD2D82110300
(1410714914.082209) can0 19FA0402#270000F201D0247C
(1410714914.085200) can0 19FA0402#28D9D413DAFFFFFF
(1410714914.088190) can0 19FA0402#29F21B390A957435
(1410714914.091578) can0 19FA0402#2A102B000000F217
(1410714914.094202) can0 19FA0402#2BD106CE8D30107E
(1410714914.097193) can0 19FA0402#2CFFFFFFF2047314
(1410714914.100184) can0 19FA0402#2DAAD2DD11F9FFFF
(1410714914.103693) can0 19FA0402#2EFFF21FE80AB84D
(1410714914.106196) can0 19FA0402#2FFA115C000000F2
(1410714914.109187) can0 19FA0402#301C1704C2C7D00D
(1410714914.112208) can0 19FA0402#31F7FFFFFFF213A2
(1410714914.115473) can0 19FA0402#321C2C800A122B00
(1410714914.118189) can0 19FA0402#330000F214221513
(1410714914.121180) can0 19FA0402#34B87B1124000000
(1410714914.124232) can0 19FA0402#35F2FFFFFFFFFFFF
(1410714914.127467) can0 0DF80502#202F73C73FF0A13F
(1410714914.130183) can0 0DF80502#212480CEECD5FA42
(1410714914.133173) can0 0DF80502#2243058090627EB0
(1410714914.136164) can0 0DF80502#23B9310340DA8F02
(1410714914.139552) can0 0DF80502#240000000013FC0C
(1410714914.142207) can0 0DF80502#2549008000AC0D00
(1410714914.145197) can0 0DF80502#260000FFFFFFFFFF
(1410714914.148157) can0 09F80102#D6719A16871AB80D
(1410714914.180231) can0 09F80202#74FC00000200FFFF
(1410714914.205195) can0 09F80102#D6719A16871AB80D
(1410714914.226679) can0 1DEFFF01#600AE598B6060404
(1410714914.227259) can0 1DEFFF01#6100000002FFFFFF
(1410714914.305201) can0 09F80102#D6719A16871AB80D
(1410714914.405146) can0 09F80102#D6719A16871AB80D
(1410714914.430323) can0 09F80202#75FC00000200FFFF
(1410714914.505122) can0 09F80102#D6719A16871AB80D
(1410714914.531153) can0 11F80E01#001B014875520E90
(1410714914.531702) can0 11F80E01#01CD9F0D40BBA616
(1410714914.532252) can0 11F80E01#0284D9CBE301D460
(1410714914.532832) can0 11F80E01#030C65C6000000FE
(1410714914.605067) can0 09F80102#D6719A16871AB80D
(1410714914.680079) can0 09F80202#76FC00000200FFFF
(1410714914.705042) can0 09F80102#D6719A16871AB80D
(1410714914.804987) can0 09F80102#D6719A16871AB80D
(1410714914.904963) can0 09F80102#D6719A16871AB80D
(1410714914.930231) can0 09F80202#77FC00000200FFFF
(1410714914.937251) can0 0DF50B11#0195030000FFFFFF
(1410714914.942683) can0 19F212B0#C00938000064FF50
(1410714914.943232) can0 19F212B0#C11C0900FFFFFFFF
(1410714914.943781) can0 19F214B0#00EC04C5FF6D7838
(1410714915.004969) can0 09F80102#D6719A16871AB80D
(1410714915.064356) can0 0DF01002#78F0C73F00C93F24
(1410714915.066889) can0 19FA0302#78D3490069006400
(1410714915.070277) can0 19FA0402#409378FD0C0B7F34
(1410714915.072932) can0 19FA0402#4113C76411FEFFFF
(1410714915.075892) can0 19FA0402#42FFF220673064D5
(1410714915.078883) can0 19FA0402#435B12EFFFFFFFF2
(1410714915.082178) can0 19FA0402#440E7F16B920DB11
(1410714915.084895) can0 19FA0402#45F6FFFFFFF2168B
(1410714915.087885) can0 19FA0402#4609AD2DA711FFFF
(1410714915.090907) can0 19FA0402#47FFFFF201D0247C
(1410714915.094141) can0 19FA0402#48D9CB13E2FFFFFF
(1410714915.096857) can0 19FA0402#49F21B390A95745A
(1410714915.099909) can0 19FA0402#4A101E000000F217
(1410714915.102869) can0 19FA0402#4BD106CE8D4B107B
(1410714915.106135) can0 19FA0402#4CFFFFFFF2047314
(1410714915.108881) can0 19FA0402#4DAAD2DE11F5FFFF
(1410714915.111872) can0 19FA0402#4EFFF21FE80AB84D
(1410714915.114893) can0 19FA0402#4FF01162000000F2
(1410714915.118128) can0 19FA0402#501C1704C2C7B90D
(1410714915.120875) can0 19FA0402#51F6FFFFFFF213A2
(1410714915.123865) can0 19FA0402#521C2C8011122600
(1410714915.126856) can0 19FA0402#530000F214221513
(1410714915.130183) can0 19FA0402#54B8AF1023000000
(1410714915.132899) can0 19FA0402#55F2FFFFFFFFFFFF
(1410714915.135859) can0 0DF80502#402F78C73F00C93F
(1410714915.138850) can0 0DF80502#412480CEECD5FA42
(1410714915.142207) can0 0DF80502#4243058090627EB0
(1410714915.144862) can0 0DF80502#43B9310340DA8F02
(1410714915.147883) can0 0DF80502#440000000013FC0C
(1410714915.150874) can0 0DF80502#4549008000AC0D00
(1410714915.154169) can0 0DF80502#460000FFFFFFFFFF
(1410714915.156855) can0 09F80102#D6719A16871AB80D
(1410714915.157954) can0 11F80E01#201B0188F64A0E20
(1410714915.158503) can0 11F80E01#21FCB80DA0009A16
(1410714915.159052) can0 11F80E01#228CFFFF00001EC0
(1410714915.159632) can0 11F80E01#2300154F000000FE
(1410714915.188898) can0 09F80202#79FC00000200FFFF
(1410714915.214167) can0 09F80102#D6719A16871AB80D
(1410714915.314173) can0 09F80102#D6719A16871AB80D
(1410714915.414149) can0 09F80102#D6719A16871AB80D
(1410714915.438837) can0 09F80202#7AFC00000200FFFF
(1410714915.514094) can0 09F80102#D6719A16871AB80D
(1410714915.613734) can0 09F80102#D6719A16871AB80D
(1410714915.688898) can0 09F80202#7BFC00000200FFFF
(1410714915.713740) can0 09F80102#D6719A16871AB80D
(1410714915.813685) can0 09F80102#D6719A16871AB80D
(1410714915.913660) can0 09F80102#D6719A16871AB80D
(1410714915.938654) can0 09F80202#7CFC00000200FFFF
(1410714916.013605) can0 09F80102#D6719A16871AB80D
(1410714916.038844) can0 0DF50B11#0195030000FFFFFF
(1410714916.050928) can0 11F80E01#401B0132D74A1030
(1410714916.051478) can0 11F80E01#4188E30D60429116
(1410714916.052027) can0 11F80E01#429202BE86016E05
(1410714916.052576) can0 11F80E01#4308E5BE000000FE
(1410714916.074427) can0 0DF01002#7DF0C73F10F03F24
(1410714916.076838) can0 19FA0302#7DD3490069006400
(1410714916.079584) can0 19FA0402#60937DFD0C0B7F34
(1410714916.082575) can0 19FA0402#6113C7D111FDFFFF
(1410714916.085566) can0 19FA0402#62FFF220673064D5
(1410714916.088862) can0 19FA0402#63DC12F4FFFFFFF2
(1410714916.091547) can0 19FA0402#640E7F16B920C711
(1410714916.094569) can0 19FA0402#65F1FFFFFFF2168B
(1410714916.097559) can0 19FA0402#6609AD2D1211FFFF
(1410714916.100825) can0 19FA0402#67FFFFF201D0247C
(1410714916.103602) can0 19FA0402#68D91714E1FFFFFF
(1410714916.106562) can0 19FA0402#69F21B390A957423
(1410714916.109583) can0 19FA0402#6A1020000000F217
(1410714916.112849) can0 19FA0402#6BD106CE8D681074
(1410714916.115565) can0 19FA0402#6CFFFFFFF2047314
(1410714916.118555) can0 19FA0402#6DAAD20812F3FFFF
(1410714916.121546) can0 19FA0402#6EFFF21FE80AB84D
(1410714916.124873) can0 19FA0402#6FC41167000000F2
(1410714916.127558) can0 19FA0402#701C1704C2C7A70D
(1410714916.130549) can0 19FA0402#71F9FFFFFFF213A2
(1410714916.133540) can0 19FA0402#721C2C8065122500
(1410714916.136866) can0 19FA0402#730000F214221513
(1410714916.139582) can0 19FA0402#74B8EF1020000000
(1410714916.142573) can0 19FA0402#75F2FFFFFFFFFFFF
(1410714916.145563) can0 0DF80502#602F7DC73F10F03F
(1410714916.148859) can0 0DF80502#612480CEECD5FA42
(1410714916.151545) can0 0DF80502#6243058090627EB0
(1410714916.154536) can0 0DF80502#63B9310340DA8F02
(1410714916.157557) can0 0DF80502#640000000013FC0C
(1410714916.160822) can0 0DF80502#6549008000AC0D00
(1410714916.163599) can0 0DF80502#660000FFFFFFFFFF
(1410714916.166529) can0 09F80102#D6719A16871AB80D
(1410714916.198603) can0 09F80202#7EFC00000100FFFF
(1410714916.223627) can0 09F80102#D6719A16871AB80D
(1410714916.323603) can0 09F80102#D6719A16871AB80D
(1410714916.423640) can0 09F80102#D6719A16871AB80D
(1410714916.442683) can0 19F212B0#E00947000064FF50
(1410714916.443262) can0 19F212B0#E11C0800FFFFFFFF
(1410714916.443812) can0 19F214B0#00EC04C5FF6D7847
(1410714916.448908) can0 09F80202#7FFC00000100FFFF
(1410714916.523615) can0 09F80102#D6719A16871AB80D
(1410714916.623621) can0 09F80102#D6719A16871AB80D
(1410714916.698450) can0 09F80202#80FC00000100FFFF
(1410714916.723597) can0 09F80102#D6719A16871AB80D
(1410714916.823756) can0 09F80102#D6719A16871AB80D
(1410714916.851130) can0 11F80E01#601B010869210E70
(1410714916.851679) can0 11F80E01#6160110E00FF6E16
(1410714916.852229) can0 11F80E01#62951B6B3A0239C0
(1410714916.852778) can0 11F80E01#6300FFFFFF7F00FE
(1410714916.923609) can0 09F80102#D6719A16871AB80D
(1410714916.948359) can0 09F80202#81FC00000100FFFF
(1410714917.023615) can0 09F80102#D6719A16871AB80D
(1410714917.040400) can0 0DF50B11#0192030000FFFFFF
(1410714917.083094) can0 0DF01002#82F0C73F20174024
(1410714917.085261) can0 19FA0302#82D3490069006400
(1410714917.088251) can0 19FA0402#809382FD0C0B7F34
(1410714917.091547) can0 19FA0402#8113C70512F9FFFF
(1410714917.094263) can0 19FA0402#82FFF220673064D5
(1410714917.097254) can0 19FA0402#838C13EDFFFFFFF2
(1410714917.100245) can0 19FA0402#840E7F16B920C211
(1410714917.103602) can0 19FA0402#85EBFFFFFFF2168B
(1410714917.106257) can0 19FA0402#8609AD2D2B110100
(1410714917.109248) can0 19FA0402#870000F201D0247C
(1410714917.112269) can0 19FA0402#88D9D613E1FFFFFF
(1410714917.115504) can0 19FA0402#89F21B390A9574EB
(1410714917.118250) can0 19FA0402#8A0F2A000000F217
(1410714917.121241) can0 19FA0402#8BD106CE8D75106E
(1410714917.124262) can0 19FA0402#8CFFFFFFF2047314
(1410714917.127497) can0 19FA0402#8DAAD21A12F0FFFF
(1410714917.130244) can0 19FA0402#8EFFF21FE80AB84D
(1410714917.133265) can0 19FA0402#8F8E116A000000F2
(1410714917.136225) can0 19FA0402#901C1704C2C7670D
(1410714917.139613) can0 19FA0402#9102000000F213A2
(1410714917.142268) can0 19FA0402#921C2C80F2112900
(1410714917.145228) can0 19FA0402#930000F214221513
(1410714917.148219) can0 19FA0402#94B862111D000000
(1410714917.151545) can0 19FA0402#95F2FFFFFFFFFFFF
(1410714917.154261) can0 0DF80502#802F82C73F201740
(1410714917.157221) can0 0DF80502#812480CEECD5FA42
(1410714917.160242) can0 0DF80502#8243058090627EB0
(1410714917.163569) can0 0DF80502#83B9310340DA8F02
(1410714917.166254) can0 0DF80502#840000000013FC0C
(1410714917.169245) can0 0DF80502#8549008000AC0D00
(1410714917.172236) can0 0DF80502#860000FFFFFFFFFF
(1410714917.175532) can0 09F80102#D6719A16871AB80D
(1410714917.207575) can0 09F80202#83FC00000300FFFF
(1410714917.232233) can0 09F80102#D6719A16871AB80D
(1410714917.332209) can0 09F80102#D6719A16871AB80D
(1410714917.432185) can0 09F80102#D6719A16871AB80D
(1410714917.457209) can0 09F80202#84FC00000300FFFF
(1410714917.531092) can0 19FB0201#004B05104E610E4C
(1410714917.531641) can0 19FB0201#01DD8B0053564253
(1410714917.532191) can0 09F80102#D6719A16871AB80D
(1410714917.532740) can0 19FB0201#0239202041492047
(1410714917.533289) can0 19FB0201#0349414E4E495320
(1410714917.533869) can0 19FB0201#0420202020202020
(1410714917.534449) can0 19FB0201#052020502805F000
(1410714917.534998) can0 19FB0201#0678003804C33F00
(1410714917.535548) can0 19FB0201#077B9A1762024147
(1410714917.536097) can0 19FB0201#082054484F44524F
(1410714917.536677) can0 19FB0201#0949202020202020
(1410714917.537226) can0 19FB0201#0A2020202004E0FF
(1410714917.632105) can0 09F80102#D6719A16871AB80D
(1410714917.707117) can0 09F80202#85FC00000300FFFF
(1410714917.732081) can0 09F80102#D6719A16871AB80D
(1410714917.832056) can0 09F80102#D6719A16871AB80D
(1410714917.932032) can0 09F80102#D6719A16871AB80D
(1410714917.942683) can0 19F212B0#000956000064FF50
(1410714917.943232) can0 19F212B0#011C0900FFFFFFFF
(1410714917.943781) can0 19F214B0#00EC04C5FF6D7856
(1410714917.957056) can0 09F80202#86FC00000300FFFF
(1410714918.031977) can0 09F80102#D6719A16871AB80D
(1410714918.042048) can0 0DF50B11#0192030000FFFFFF
(1410714918.091547) can0 0DF01002#87F0C73F303E4024
(1410714918.094202) can0 19FA0302#87D3490069006400
(1410714918.096918) can0 19FA0402#A09387FD0C0B7F34
(1410714918.099940) can0 19FA0402#A113C74B12EFFFFF
(1410714918.102930) can0 19FA0402#A2FFF220673064D5
(1410714918.106196) can0 19FA0402#A33A13EFFFFFFFF2
(1410714918.108942) can0 19FA0402#A40E7F16B920A111
(1410714918.111933) can0 19FA0402#A5F4FFFFFFF2168B
(1410714918.114924) can0 19FA0402#A609AD2D76110400
(1410714918.118189) can0 19FA0402#A70000F201D0247C
(1410714918.120936) can0 19FA0402#A8D91113EAFFFFFF
(1410714918.123927) can0 19FA0402#A9F21B390A957437
(1410714918.126948) can0 19FA0402#AA1022000000F217
(1410714918.130244) can0 19FA0402#ABD106CE8D0D1073
(1410714918.132929) can0 19FA0402#ACFFFFFFF2047314
(1410714918.135920) can0 19FA0402#ADAAD22012F0FFFF
(1410714918.138911) can0 19FA0402#AEFFF21FE80AB84D
(1410714918.142237) can0 19FA0402#AF921165000000F2
(1410714918.144923) can0 19FA0402#B01C1704C2C74D0D
(1410714918.147913) can0 19FA0402#B11C000000F213A2
(1410714918.150904) can0 19FA0402#B21C2C803F122A00
(1410714918.154169) can0 19FA0402#B30000F214221513
(1410714918.156916) can0 19FA0402#B4B8391118000000
(1410714918.159937) can0 19FA0402#B5F2FFFFFFFFFFFF
(1410714918.162928) can0 0DF80502#A02F87C73F303E40
(1410714918.166163) can0 0DF80502#A12480CEECD5FA42
(1410714918.168909) can0 0DF80502#A243058090627EB0
(1410714918.171900) can0 0DF80502#A3B9310340DA8F02
(1410714918.174921) can0 0DF80502#A40000000013FC0C
(1410714918.178187) can0 0DF80502#A549008000AC0D00
(1410714918.180933) can0 0DF80502#A60000FFFFFFFFFF
(1410714918.183894) can0 09F80102#D6719A16871AB80D
(1410714918.215968) can0 09F80202#88FC00000200FFFF
(1410714918.240931) can0 09F80102#D6719A16871AB80D
(1410714918.340876) can0 09F80102#D6719A16871AB80D
(1410714918.440852) can0 09F80102#D6719A16871AB80D
(1410714918.466212) can0 09F80202#89FC00000200FFFF
(1410714918.540858) can0 09F80102#D6719A16871AB80D
(1410714918.640833) can0 09F80102#D6719A16871AB80D
(1410714918.715784) can0 09F80202#8AFC00000200FFFF
(1410714918.740839) can0 09F80102#D6719A16871AB80D
(1410714918.840845) can0 09F80102#D6719A16871AB80D
(1410714918.947047) can0 09F80102#D6719A16871AB80D
(1410714918.965723) can0 09F80202#8BFC00000200FFFF
(1410714919.040827) can0 09F80102#D6719A16871AB80D
(1410714919.043513) can0 0DF50B11#0192030000FFFFFF
(1410714919.106409) can0 0DF01002#8CF0C73F40654024
(1410714919.108881) can0 19FA0302#8CD3490069006400
(1410714919.111628) can0 19FA0402#C0938CFD0C0B7F34
(1410714919.114619) can0 19FA0402#C113C7A811ECFFFF
(1410714919.117609) can0 19FA0402#C2FFF220673064D5
(1410714919.120814) can0 19FA0402#C3FE12F8FFFFFFF2
(1410714919.123652) can0 19FA0402#C40E7F16B9207C11
(1410714919.126612) can0 19FA0402#C5F3FFFFFFF2168B
(1410714919.129603) can0 19FA0402#C609AD2D2E111100
(1410714919.132868) can0 19FA0402#C70000F201D0247C
(1410714919.135615) can0 19FA0402#C8D94E13EEFFFFFF
(1410714919.138605) can0 19FA0402#C9F21B390A95747C
(1410714919.141596) can0 19FA0402#CA1027000000F217
(1410714919.144801) can0 19FA0402#CBD106CE8D29106E
(1410714919.147608) can0 19FA0402#CCFFFFFFF2047314
(1410714919.150599) can0 19FA0402#CDAAD21312F5FFFF
(1410714919.153590) can0 19FA0402#CEFFF21FE80AB84D
(1410714919.156886) can0 19FA0402#CFA51159000000F2
(1410714919.159602) can0 19FA0402#D01C1704C2C7EA0C
(1410714919.162592) can0 19FA0402#D11E000000F213A2
(1410714919.165583) can0 19FA0402#D21C2C8080122B00
(1410714919.168879) can0 19FA0402#D30000F214221513
(1410714919.171595) can0 19FA0402#D4B829111B000000
(1410714919.174616) can0 19FA0402#D5F2FFFFFFFFFFFF
(1410714919.177607) can0 0DF80502#C02F8CC73F406540
(1410714919.180811) can0 0DF80502#C12480CEECD5FA42
(1410714919.183710) can0 0DF80502#C243058090627EB0
(1410714919.186579) can0 0DF80502#C3B9310340DA8F02
(1410714919.189600) can0 0DF80502#C40000000013FC0C
(1410714919.192896) can0 0DF80502#C549008000AC0D00
(1410714919.195612) can0 0DF80502#C60000FFFFFFFFFF
(1410714919.198573) can0 09F80102#D6719A16871AB80D
(1410714919.226374) can0 1DEFFF01#800AE598B6060404
(1410714919.226954) can0 1DEFFF01#8100000002FFFFFF
(1410714919.230646) can0 09F80202#8DFC00000300FFFF
(1410714919.255579) can0 09F80102#D6719A16871AB80D
(1410714919.355585) can0 09F80102#D6719A16871AB80D
(1410714919.442957) can0 19F212B0#200965000064FF50
(1410714919.443537) can0 19F212B0#211C0900FFFFFFFF
(1410714919.444086) can0 19F214B0#00EB04C5FF6A7865
(1410714919.455622) can0 09F80102#D6719A16871AB80D
(1410714919.480860) can0 09F80202#8EFC00000300FFFF
(1410714919.517847) can0 11F80E01#801B0108975C0EF0
(1410714919.518397) can0 11F80E01#819DC50DE0F59816
(1410714919.518946) can0 11F80E01#829D5B5B0000F308
(1410714919.519526) can0 11F80E01#830136AF000000FE
(1410714919.555598) can0 09F80102#D6719A16871AB80D
(1410714919.655604) can0 09F80102#D6719A16871AB80D
(1410714919.704127) can0 11F80E01#A01B01985B620E10
(1410714919.704676) can0 11F80E01#A1C6C20D20B99916
(1410714919.705225) can0 11F80E01#A2A4A5A400008B08
(1410714919.705775) can0 11F80E01#A309FFFFFF7F00FE
(1410714919.730494) can0 09F80202#8FFC00000300FFFF
(1410714919.755579) can0 09F80102#D6719A16871AB80D
(1410714919.855646) can0 09F80102#D6719A16871AB80D
(1410714919.955592) can0 09F80102#D6719A16871AB80D
(1410714919.980402) can0 09F80202#90FC00000300FFFF
(1410714920.045222) can0 0DF50B11#0195030000FFFFFF
(1410714920.055598) can0 09F80102#D6719A16871AB80D
(1410714920.109583) can0 0DF01002#91F0C73F508C4024
(1410714920.112299) can0 19FA0302#91D3490069006400
(1410714920.115565) can0 19FA0402#E09391FD0C0B7F34
(1410714920.118281) can0 19FA0402#E113C77911EBFFFF
(1410714920.121302) can0 19FA0402#E2FFF220673064D5
(1410714920.124293) can0 19FA0402#E3EB12F7FFFFFFF2
(1410714920.127558) can0 19FA0402#E40E7F16B9206611
(1410714920.130305) can0 19FA0402#E5EAFFFFFFF2168B
(1410714920.133295) can0 19FA0402#E609AD2DE3101400
(1410714920.136286) can0 19FA0402#E70000F201D0247C
(1410714920.139582) can0 19FA0402#E8D97A13E9FFFFFF
(1410714920.142268) can0 19FA0402#E9F21B390A957472
(1410714920.145289) can0 19FA0402#EA102F000000F217
(1410714920.148280) can0 19FA0402#EBD106CE8DAF1062
(1410714920.151545) can0 19FA0402#ECFFFFFFF2047314
(1410714920.154292) can0 19FA0402#EDAAD2E311000000
(1410714920.157282) can0 19FA0402#EE00F21FE80AB84D
(1410714920.160303) can0 19FA0402#EFA21156000000F2
(1410714920.163660) can0 19FA0402#F01C1704C2C7AD0C
(1410714920.166285) can0 19FA0402#F110000000F213A2
(1410714920.169276) can0 19FA0402#F21C2C8070122E00
(1410714920.172266) can0 19FA0402#F30000F214221513
(1410714920.175654) can0 19FA0402#F4B813111F000000
(1410714920.178309) can0 19FA0402#F5F2FFFFFFFFFFFF
(1410714920.181300) can0 0DF80502#E02F91C73F508C40
(1410714920.184260) can0 0DF80502#E12480CEECD5FA42
(1410714920.187617) can0 0DF80502#E243058090627EB0
(1410714920.190302) can0 0DF80502#E3B9310340DA8F02
(1410714920.193293) can0 0DF80502#E40000000013FC0C
(1410714920.196284) can0 0DF80502#E549008000AC0D00
(1410714920.199610) can0 0DF80502#E60000FFFFFFFFFF
(1410714920.202265) can0 09F80102#D6719A16871AB80D
(1410714920.234309) can0 09F80202#92FC00000300FFFF
(1410714920.259608) can0 09F80102#D6719A16871AB80D
(1410714920.359583) can0 09F80102#D6719A16871AB80D
(1410714920.459589) can0 09F80102#D6719A16871AB80D
(1410714920.484248) can0 09F80202#93FC00000300FFFF
(1410714920.559565) can0 09F80102#D6719A16871AB80D
(1410714920.659602) can0 09F80102#D6719A16871AB80D
(1410714920.734248) can0 09F80202#94FC00000300FFFF
(1410714920.759119) can0 09F80102#D6719A16871AB80D
(1410714920.859095) can0 09F80102#D6719A16871AB80D
(1410714920.942744) can0 19F212B0#400974000064FF20
(1410714920.943323) can0 19F212B0#411CA104FFFFFFFF
(1410714920.943873) can0 19F214B0#00E604C0FF5A7874
(1410714920.959071) can0 09F80102#D6719A16871AB80D
(1410714920.984095) can0 09F80202#95FC00000300FFFF
(1410714921.047114) can0 0DF50B11#0195030000FFFFFF
(1410714921.059046) can0 09F80102#D6719A16871AB80D
(1410714921.070185) can0 0DF01002#96F0C73F60B34024
(1410714921.072993) can0 19FA0302#96D3490069006400
(1410714921.076014) can0 19FA0402#009396FD0C0B7F34
(1410714921.079005) can0 19FA0402#0113C79811F2FFFF
(1410714921.082240) can0 19FA0402#02FFF220673064D5
(1410714921.085017) can0 19FA0402#037012FEFFFFFFF2
(1410714921.087977) can0 19FA0402#040E7F16B9206211
(1410714921.090998) can0 19FA0402#05F0FFFFFFF2168B
(1410714921.094202) can0 19FA0402#0609AD2DCF101800
(1410714921.097010) can0 19FA0402#070000F201D0247C
(1410714921.100001) can0 19FA0402#08D99913E5FFFFFF
(1410714921.102961) can0 19FA0402#09F21B390A95746E
(1410714921.106226) can0 19FA0402#0A102C000000F217
(1410714921.108973) can0 19FA0402#0BD106CE8DBF1060
(1410714921.111994) can0 19FA0402#0CFFFFFFF2047314
(1410714921.114985) can0 19FA0402#0DAAD22912F7FFFF
(1410714921.118189) can0 19FA0402#0EFFF21FE80AB84D
(1410714921.120997) can0 19FA0402#0F9C1156000000F2
(1410714921.123957) can0 19FA0402#101C1704C2C7990C
(1410714921.127009) can0 19FA0402#11F6FFFFFFF213A2
(1410714921.130213) can0 19FA0402#121C2C8033122B00
(1410714921.132960) can0 19FA0402#130000F214221513
(1410714921.135981) can0 19FA0402#14B800112A000000
(1410714921.139002) can0 19FA0402#15F2FFFFFFFFFFFF
(1410714921.142329) can0 0DF80502#002F96C73F60B340
(1410714921.144953) can0 0DF80502#012480CEECD5FA42
(1410714921.147974) can0 0DF80502#0243058090627EB0
(1410714921.150965) can0 0DF80502#03B9310340DA8F02
(1410714921.154230) can0 0DF80502#040000000013FC0C
(1410714921.156977) can0 0DF80502#0549008000AC0D00
(1410714921.159998) can0 0DF80502#060000FFFFFFFFFF
(1410714921.162959) can0 09F80102#D6719A16871AB80D
(1410714921.194239) can0 09F80202#97FC00000200FFFF
(1410714921.218958) can0 09F80102#D6719A16871AB80D
(1410714921.318934) can0 09F80102#D6719A16871AB80D
(1410714921.418909) can0 09F80102#D6719A16871AB80D
(1410714921.443964) can0 09F80202#98FC00000200FFFF
(1410714921.518885) can0 09F80102#D6719A16871AB80D
(1410714921.618861) can0 09F80102#D6719A16871AB80D
(1410714921.694178) can0 09F80202#99FC00000200FFFF
(1410714921.718836) can0 09F80102#D6719A16871AB80D
(1410714921.818781) can0 09F80102#D6719A16871AB80D
(1410714921.918757) can0 09F80102#D6719A16871AB80D
(1410714921.943964) can0 09F80202#9AFC00000200FFFF
(1410714922.018702) can0 09F80102#D6719A16871AB80D
(1410714922.048640) can0 0DF50B11#0195030000FFFFFF
(1410714922.079890) can0 0DF01002#9BF0C73F70DA4024
(1410714922.082667) can0 19FA0302#9BD3490069006400
(1410714922.085688) can0 19FA0402#20939BFD0C0B7F34
(1410714922.088984) can0 19FA0402#2113C7B711F7FFFF
(1410714922.091669) can0 19FA0402#22FFF220673064D5
(1410714922.094691) can0 19FA0402#23D812FFFFFFFFF2
(1410714922.097681) can0 19FA0402#240E7F16B9204211
(1410714922.100886) can0 19FA0402#25FBFFFFFFF2168B
(1410714922.103938) can0 19FA0402#2609AD2DDC101100
(1410714922.106684) can0 19FA0402#270000F201D0247C
(1410714922.109675) can0 19FA0402#28D9CA13E9FFFFFF
(1410714922.113001) can0 19FA0402#29F21B390A95745A
(1410714922.115656) can0 19FA0402#2A1025000000F217
(1410714922.118677) can0 19FA0402#2BD106CE8DBE1067
(1410714922.121668) can0 19FA0402#2CFFFFFFF2047314
(1410714922.124873) can0 19FA0402#2DAAD25612E9FFFF
(1410714922.127650) can0 19FA0402#2EFFF21FE80AB84D
(1410714922.130671) can0 19FA0402#2F6B115E000000F2
(1410714922.133662) can0 19FA0402#301C1704C2C76A0C
(1410714922.136927) can0 19FA0402#31E4FFFFFFF213A2
(1410714922.139674) can0 19FA0402#321C2C80F2113700
(1410714922.142664) can0 19FA0402#330000F214221513
(1410714922.145655) can0 19FA0402#34B8E5102F000000
(1410714922.149012) can0 19FA0402#35F2FFFFFFFFFFFF
(1410714922.151667) can0 0DF80502#202F9BC73F70DA40
(1410714922.154658) can0 0DF80502#212480CEECD5FA42
(1410714922.157648) can0 0DF80502#2243058090627EB0
(1410714922.160853) can0 0DF80502#23B9310340DA8F02
(1410714922.163721) can0 0DF80502#240000000013FC0C
(1410714922.166651) can0 0DF80502#2549008000AC0D00
(1410714922.169672) can0 0DF80502#260000FFFFFFFFFF
(1410714922.172907) can0 09F80102#D6719A16871AB80D
(1410714922.204920) can0 09F80202#9CFC00000300FFFF
(1410714922.229670) can0 09F80102#D6719A16871AB80D
(1410714922.251307) can0 19FB0201#204B0518B85D0EE3
(1410714922.251856) can0 19FB0201#216F910053564241
(1410714922.252436) can0 19FB0201#2236202046524553
(1410714922.252985) can0 19FB0201#2320202020202020
(1410714922.253565) can0 19FB0201#2420202020202020
(1410714922.254145) can0 19FB0201#2520205070038C00
(1410714922.254694) can0 19FB0201#2646007602C63F00
(1410714922.255244) can0 19FB0201#2754EA2A12024147
(1410714922.255793) can0 19FB0201#28494F4920544845
(1410714922.256342) can0 19FB0201#294F444F524F4920
(1410714922.256922) can0 19FB0201#2A2020202004E0FF
(1410714922.329615) can0 09F80102#D6719A16871AB80D
(1410714922.429591) can0 09F80102#D6719A16871AB80D
(1410714922.442988) can0 19F212B0#600983000064FF1F
(1410714922.443537) can0 19F212B0#611C0A00FFFFFFFF
(1410714922.444117) can0 19F214B0#00EB04C2FF677883
(1410714922.454646) can0 09F80202#9DFC00000300FFFF
(1410714922.504145) can0 11F80E01#C01B01A929C40CB0
(1410714922.504694) can0 11F80E01#C133B90D40009A16
(1410714922.505244) can0 11F80E01#C2B001DF0000D460
(1410714922.505823) can0 11F80E01#C3047CCA000000FE
(1410714922.529566) can0 09F80102#D6719A16871AB80D
(1410714922.629542) can0 09F80102#D6719A16871AB80D
(1410714922.704859) can0 09F80202#9EFC00000300FFFF
(1410714922.729487) can0 09F80102#D6719A16871AB80D
(1410714922.829462) can0 09F80102#D6719A16871AB80D
(1410714922.929438) can0 09F80102#D6719A16871AB80D
(1410714922.954920) can0 09F80202#9FFC00000300FFFF
(1410714923.033289) can0 09F80102#D6719A16871AB80D
(1410714923.037531) can0 11F80E01#E01B0148AA2C0EC0
(1410714923.038081) can0 11F80E01#E183F40D00C78016
(1410714923.038630) can0 11F80E01#E2A4CDE7030351C0
(1410714923.039210) can0 11F80E01#E300FFFFFF7F00FE
(1410714923.050196) can0 0DF50B11#0195030000FFFFFF
(1410714923.089686) can0 0DF01002#A0F0C73F80014124
(1410714923.092371) can0 19FA0302#A0D3490069006400
(1410714923.095606) can0 19FA0402#4093A0FD0C0B7F34
(1410714923.098353) can0 19FA0402#4113C7E011F9FFFF
(1410714923.101344) can0 19FA0402#42FFF220673064D5
(1410714923.104365) can0 19FA0402#43F81200000000F2
(1410714923.107600) can0 19FA0402#440E7F16B9209211
(1410714923.110346) can0 19FA0402#45F1FFFFFFF2168B
(1410714923.113367) can0 19FA0402#4609AD2DE8100C00
(1410714923.116358) can0 19FA0402#470000F201D0247C
(1410714923.119563) can0 19FA0402#48D97413F0FFFFFF
(1410714923.122340) can0 19FA0402#49F21B390A95746B
(1410714923.125361) can0 19FA0402#4A101C000000F217
(1410714923.128321) can0 19FA0402#4BD106CE8DAF106D
(1410714923.131617) can0 19FA0402#4CFFFFFFF2047314
(1410714923.134333) can0 19FA0402#4DAAD25C12E7FFFF
(1410714923.137354) can0 19FA0402#4EFFF21FE80AB84D
(1410714923.140345) can0 19FA0402#4F411166000000F2
(1410714923.143732) can0 19FA0402#501C1704C2C7480C
(1410714923.146357) can0 19FA0402#51CEFFFFFFF213A2
(1410714923.149348) can0 19FA0402#521C2C8036123600
(1410714923.152338) can0 19FA0402#530000F214221513
(1410714923.155604) can0 19FA0402#54B81D112C000000
(1410714923.158350) can0 19FA0402#55F2FFFFFFFFFFFF
(1410714923.161341) can0 0DF80502#402FA0C73F800141
(1410714923.164332) can0 0DF80502#412480CEECD5FA42
(1410714923.167597) can0 0DF80502#4243058090627EB0
(1410714923.170344) can0 0DF80502#43B9310340DA8F02
